 v-sweep         incm            outcm           pow             x1.nsources     x1.d1           x1.d2           x1.bias        
 0.00000000e+00  0.00000000e+00  1.73703196e-07  3.30000000e+00  3.25117171e-08  2.98709503e+00  2.98567707e+00  9.36299899e-01 
 1.00000000e-02  1.00000000e-02  1.96554074e-07  3.30000000e+00  3.82457315e-08  2.98182751e+00  2.97957898e+00  9.36299899e-01 
 2.00000000e-02  2.00000000e-02  2.11844910e-07  3.30000000e+00  4.62774847e-08  2.97584007e+00  2.97622901e+00  9.36299899e-01 
 3.00000000e-02  3.00000000e-02  2.35642577e-07  3.30000000e+00  5.52075744e-08  2.96983380e+00  2.97138707e+00  9.36299899e-01 
 4.00000000e-02  4.00000000e-02  2.74705276e-07  3.30000000e+00  6.58360666e-08  2.96363382e+00  2.96440866e+00  9.36299899e-01 
 5.00000000e-02  5.00000000e-02  3.16260614e-07  3.30000000e+00  7.85122366e-08  2.95705990e+00  2.95794465e+00  9.36299899e-01 
 6.00000000e-02  6.00000000e-02  3.76284450e-07  3.30000000e+00  9.36042020e-08  2.95044261e+00  2.94989758e+00  9.36299899e-01 
 7.00000000e-02  7.00000000e-02  4.47763758e-07  3.30000000e+00  1.11594233e-07  2.94363760e+00  2.94190047e+00  9.36299899e-01 
 8.00000000e-02  8.00000000e-02  5.03742314e-07  3.30000000e+00  1.33089318e-07  2.93657113e+00  2.93639844e+00  9.36299899e-01 
 9.00000000e-02  9.00000000e-02  6.06231327e-07  3.30000000e+00  1.58644176e-07  2.92945525e+00  2.92783521e+00  9.36299899e-01 
 1.00000000e-01  1.00000000e-01  6.91544721e-07  3.30000000e+00  1.89176577e-07  2.92214837e+00  2.92179453e+00  9.36299899e-01 
 1.10000000e-01  1.10000000e-01  7.82271000e-07  3.30000000e+00  2.25597212e-07  2.91476025e+00  2.91618577e+00  9.36299899e-01 
 1.20000000e-01  1.20000000e-01  9.57241308e-07  3.30000000e+00  2.68863163e-07  2.90743705e+00  2.90673971e+00  9.36299899e-01 
 1.30000000e-01  1.30000000e-01  1.12212092e-06  3.30000000e+00  3.20528265e-07  2.89986274e+00  2.89951770e+00  9.36299899e-01 
 1.40000000e-01  1.40000000e-01  1.31067262e-06  3.30000000e+00  3.82125787e-07  2.89226283e+00  2.89242108e+00  9.36299899e-01 
 1.50000000e-01  1.50000000e-01  1.56804984e-06  3.30000000e+00  4.55472500e-07  2.88468449e+00  2.88415064e+00  9.36299899e-01 
 1.60000000e-01  1.60000000e-01  1.83954835e-06  3.30000000e+00  5.42966509e-07  2.87698978e+00  2.87680233e+00  9.36299899e-01 
 1.70000000e-01  1.70000000e-01  2.16624721e-06  3.30000000e+00  6.47241697e-07  2.86925466e+00  2.86928229e+00  9.36299899e-01 
 1.80000000e-01  1.80000000e-01  2.55753696e-06  3.30000000e+00  7.71520604e-07  2.86150820e+00  2.86163355e+00  9.36299899e-01 
 1.90000000e-01  1.90000000e-01  3.03128554e-06  3.30000000e+00  9.19625891e-07  2.85373542e+00  2.85380334e+00  9.36299899e-01 
 2.00000000e-01  2.00000000e-01  3.57771731e-06  3.30000000e+00  1.09618375e-06  2.84592500e+00  2.84616481e+00  9.36299899e-01 
 2.10000000e-01  2.10000000e-01  4.25110244e-06  3.30000000e+00  1.30655676e-06  2.83808549e+00  2.83821353e+00  9.36299899e-01 
 2.20000000e-01  2.20000000e-01  5.07920540e-06  3.30000000e+00  1.55722915e-06  2.83025510e+00  2.83000535e+00  9.36299899e-01 
 2.30000000e-01  2.30000000e-01  5.97103708e-06  3.30000000e+00  1.85619479e-06  2.82237283e+00  2.82253597e+00  9.36299899e-01 
 2.40000000e-01  2.40000000e-01  7.10144959e-06  3.30000000e+00  2.21234605e-06  2.81448906e+00  2.81453504e+00  9.36299899e-01 
 2.50000000e-01  2.50000000e-01  8.43994373e-06  3.30000000e+00  2.63682123e-06  2.80659453e+00  2.80656214e+00  9.36299899e-01 
 2.60000000e-01  2.60000000e-01  1.00109905e-05  3.30000000e+00  3.14275282e-06  2.79868825e+00  2.79867225e+00  9.36299899e-01 
 2.70000000e-01  2.70000000e-01  1.18722387e-05  3.30000000e+00  3.74572140e-06  2.79076669e+00  2.79078591e+00  9.36299899e-01 
 2.80000000e-01  2.80000000e-01  1.41013248e-05  3.30000000e+00  4.46427292e-06  2.78283608e+00  2.78282200e+00  9.36299899e-01 
 2.90000000e-01  2.90000000e-01  1.67436177e-05  3.30000000e+00  5.32061316e-06  2.77489164e+00  2.77486644e+00  9.36299899e-01 
 3.00000000e-01  3.00000000e-01  1.98763457e-05  3.30000000e+00  6.34115110e-06  2.76693906e+00  2.76691465e+00  9.36299899e-01 
 3.10000000e-01  3.10000000e-01  2.35928175e-05  3.30000000e+00  7.55733962e-06  2.75897551e+00  2.75895986e+00  9.36299899e-01 
 3.20000000e-01  3.20000000e-01  2.80007549e-05  3.30000000e+00  9.00665992e-06  2.75100039e+00  2.75100240e+00  9.36299899e-01 
 3.30000000e-01  3.30000000e-01  3.32432256e-05  3.30000000e+00  1.07337283e-05  2.74301531e+00  2.74302045e+00  9.36299899e-01 
 3.40000000e-01  3.40000000e-01  3.94708074e-05  3.30000000e+00  1.27917396e-05  2.73502015e+00  2.73502434e+00  9.36299899e-01 
 3.50000000e-01  3.50000000e-01  4.68712176e-05  3.30000000e+00  1.52440329e-05  2.72701457e+00  2.72701126e+00  9.36299899e-01 
 3.60000000e-01  3.60000000e-01  5.56551376e-05  3.30000000e+00  1.81660735e-05  2.71899636e+00  2.71898979e+00  9.36299899e-01 
 3.70000000e-01  3.70000000e-01  6.60692486e-05  3.30000000e+00  2.16477486e-05  2.71096555e+00  2.71096691e+00  9.36299899e-01 
 3.80000000e-01  3.80000000e-01  7.84379135e-05  3.30000000e+00  2.57960165e-05  2.70292321e+00  2.70292677e+00  9.36299899e-01 
 3.90000000e-01  3.90000000e-01  9.31024791e-05  3.30000000e+00  3.07383248e-05  2.69486705e+00  2.69488164e+00  9.36299899e-01 
 4.00000000e-01  4.00000000e-01  1.10551337e-04  3.30000000e+00  3.66261816e-05  2.68679781e+00  2.68680227e+00  9.36299899e-01 
 4.10000000e-01  4.10000000e-01  1.31247589e-04  3.30000000e+00  4.36402080e-05  2.67871342e+00  2.67871370e+00  9.36299899e-01 
 4.20000000e-01  4.20000000e-01  1.55807484e-04  3.30000000e+00  5.19951665e-05  2.67061388e+00  2.67060966e+00  9.36299899e-01 
 4.30000000e-01  4.30000000e-01  1.84909849e-04  3.30000000e+00  6.19466792e-05  2.66249784e+00  2.66249910e+00  9.36299899e-01 
 4.40000000e-01  4.40000000e-01  2.19448313e-04  3.30000000e+00  7.37985161e-05  2.65436482e+00  2.65436681e+00  9.36299899e-01 
 4.50000000e-01  4.50000000e-01  2.60410444e-04  3.30000000e+00  8.79120099e-05  2.64621391e+00  2.64621629e+00  9.36299899e-01 
 4.60000000e-01  4.60000000e-01  3.08990129e-04  3.30000000e+00  1.04716491e-04  2.63804439e+00  2.63804522e+00  9.36299899e-01 
 4.70000000e-01  4.70000000e-01  3.66559320e-04  3.30000000e+00  1.24722023e-04  2.62985523e+00  2.62985702e+00  9.36299899e-01 
 4.80000000e-01  4.80000000e-01  4.34791986e-04  3.30000000e+00  1.48533967e-04  2.62164591e+00  2.62164729e+00  9.36299899e-01 
 4.90000000e-01  4.90000000e-01  5.15635122e-04  3.30000000e+00  1.76870545e-04  2.61341581e+00  2.61341576e+00  9.36299899e-01 
 5.00000000e-01  5.00000000e-01  6.11341863e-04  3.30000000e+00  2.10583232e-04  2.60516440e+00  2.60516545e+00  9.36299899e-01 
 5.10000000e-01  5.10000000e-01  7.24655728e-04  3.30000000e+00  2.50680114e-04  2.59689138e+00  2.59689174e+00  9.36299899e-01 
 5.20000000e-01  5.20000000e-01  8.58717063e-04  3.30000000e+00  2.98353937e-04  2.58859680e+00  2.58859684e+00  9.36299899e-01 
 5.30000000e-01  5.30000000e-01  1.01723298e-03  3.30000000e+00  3.55013713e-04  2.58028087e+00  2.58028123e+00  9.36299899e-01 
 5.40000000e-01  5.40000000e-01  1.20457353e-03  3.30000000e+00  4.22321358e-04  2.57194434e+00  2.57194443e+00  9.36299899e-01 
 5.50000000e-01  5.50000000e-01  1.42580634e-03  3.30000000e+00  5.02233732e-04  2.56358831e+00  2.56358831e+00  9.36299899e-01 
 5.60000000e-01  5.60000000e-01  1.68684898e-03  3.30000000e+00  5.97049881e-04  2.55521457e+00  2.55521472e+00  9.36299899e-01 
 5.70000000e-01  5.70000000e-01  1.99462159e-03  3.30000000e+00  7.09463966e-04  2.54682556e+00  2.54682516e+00  9.36299899e-01 
 5.80000000e-01  5.80000000e-01  2.35705528e-03  3.30000000e+00  8.42624242e-04  2.53842446e+00  2.53842425e+00  9.36299899e-01 
 5.90000000e-01  5.90000000e-01  2.78339828e-03  3.30000000e+00  1.00019624e-03  2.53001549e+00  2.53001539e+00  9.36299899e-01 
 6.00000000e-01  6.00000000e-01  3.28425996e-03  3.30000000e+00  1.18643079e-03  2.52160382e+00  2.52160381e+00  9.36299899e-01 
 6.10000000e-01  6.10000000e-01  3.87180534e-03  3.30000000e+00  1.40623400e-03  2.51319580e+00  2.51319578e+00  9.36299899e-01 
 6.20000000e-01  6.20000000e-01  4.55989022e-03  3.30000000e+00  1.66523696e-03  2.50479898e+00  2.50479901e+00  9.36299899e-01 
 6.30000000e-01  6.30000000e-01  5.36425966e-03  3.30000000e+00  1.96986133e-03  2.49642221e+00  2.49642219e+00  9.36299899e-01 
 6.40000000e-01  6.40000000e-01  6.30263888e-03  3.30000000e+00  2.32737609e-03  2.48807567e+00  2.48807570e+00  9.36299899e-01 
 6.50000000e-01  6.50000000e-01  7.39493741e-03  3.30000000e+00  2.74593877e-03  2.47977086e+00  2.47977091e+00  9.36299899e-01 
 6.60000000e-01  6.60000000e-01  8.66335122e-03  3.30000000e+00  3.23461425e-03  2.47152052e+00  2.47152041e+00  9.36299899e-01 
 6.70000000e-01  6.70000000e-01  1.01323786e-02  3.30000000e+00  3.80336324e-03  2.46333851e+00  2.46333839e+00  9.36299899e-01 
 6.80000000e-01  6.80000000e-01  1.18290276e-02  3.30000000e+00  4.46299137e-03  2.45523967e+00  2.45523965e+00  9.36299899e-01 
 6.90000000e-01  6.90000000e-01  1.37829069e-02  3.30000000e+00  5.22505296e-03  2.44723959e+00  2.44723957e+00  9.36299899e-01 
 7.00000000e-01  7.00000000e-01  1.60262336e-02  3.30000000e+00  6.10170486e-03  2.43935434e+00  2.43935429e+00  9.36299899e-01 
 7.10000000e-01  7.10000000e-01  1.85940303e-02  3.30000000e+00  7.10550887e-03  2.43160016e+00  2.43160016e+00  9.36299899e-01 
 7.20000000e-01  7.20000000e-01  2.15245082e-02  3.30000000e+00  8.24918758e-03  2.42399319e+00  2.42399320e+00  9.36299899e-01 
 7.30000000e-01  7.30000000e-01  2.48594832e-02  3.30000000e+00  9.54534450e-03  2.41654910e+00  2.41654909e+00  9.36299899e-01 
 7.40000000e-01  7.40000000e-01  2.86451985e-02  3.30000000e+00  1.10061641e-02  2.40928281e+00  2.40928282e+00  9.36299899e-01 
 7.50000000e-01  7.50000000e-01  3.29338533e-02  3.30000000e+00  1.26431117e-02  2.40220815e+00  2.40220816e+00  9.36299899e-01 
 7.60000000e-01  7.60000000e-01  3.77856374e-02  3.30000000e+00  1.44666565e-02  2.39533768e+00  2.39533770e+00  9.36299899e-01 
 7.70000000e-01  7.70000000e-01  4.32722291e-02  3.30000000e+00  1.64860384e-02  2.38868244e+00  2.38868242e+00  9.36299899e-01 
 7.80000000e-01  7.80000000e-01  4.94818294e-02  3.30000000e+00  1.87090958e-02  2.38225182e+00  2.38225182e+00  9.36299899e-01 
 7.90000000e-01  7.90000000e-01  5.65273058e-02  3.30000000e+00  2.11421631e-02  2.37605349e+00  2.37605350e+00  9.36299899e-01 
 8.00000000e-01  8.00000000e-01  6.45582689e-02  3.30000000e+00  2.37900425e-02  2.37009342e+00  2.37009343e+00  9.36299899e-01 
 8.10000000e-01  8.10000000e-01  7.37799780e-02  3.30000000e+00  2.66560427e-02  2.36437590e+00  2.36437591e+00  9.36299899e-01 
 8.20000000e-01  8.20000000e-01  8.44826892e-02  3.30000000e+00  2.97420722e-02  2.35890364e+00  2.35890363e+00  9.36299899e-01 
 8.30000000e-01  8.30000000e-01  9.70848729e-02  3.30000000e+00  3.30487743e-02  2.35367794e+00  2.35367794e+00  9.36299899e-01 
 8.40000000e-01  8.40000000e-01  1.12191202e-01  3.30000000e+00  3.65756824e-02  2.34869881e+00  2.34869879e+00  9.36299899e-01 
 8.50000000e-01  8.50000000e-01  1.30639946e-01  3.30000000e+00  4.03213821e-02  2.34396515e+00  2.34396516e+00  9.36299899e-01 
 8.60000000e-01  8.60000000e-01  1.53451749e-01  3.30000000e+00  4.42836637e-02  2.33947492e+00  2.33947493e+00  9.36299899e-01 
 8.70000000e-01  8.70000000e-01  1.81508975e-01  3.30000000e+00  4.84596538e-02  2.33522522e+00  2.33522521e+00  9.36299899e-01 
 8.80000000e-01  8.80000000e-01  2.14985912e-01  3.30000000e+00  5.28459191e-02  2.33121244e+00  2.33121244e+00  9.36299899e-01 
 8.90000000e-01  8.90000000e-01  2.53096242e-01  3.30000000e+00  5.74385354e-02  2.32743233e+00  2.32743234e+00  9.36299899e-01 
 9.00000000e-01  9.00000000e-01  2.94515864e-01  3.30000000e+00  6.22331230e-02  2.32388002e+00  2.32388002e+00  9.36299899e-01 
 9.10000000e-01  9.10000000e-01  3.37907444e-01  3.30000000e+00  6.72248487e-02  2.32055000e+00  2.32055000e+00  9.36299899e-01 
 9.20000000e-01  9.20000000e-01  3.82137436e-01  3.30000000e+00  7.24084001e-02  2.31743618e+00  2.31743618e+00  9.36299899e-01 
 9.30000000e-01  9.30000000e-01  4.26305538e-01  3.30000000e+00  7.77779414e-02  2.31453176e+00  2.31453176e+00  9.36299899e-01 
 9.40000000e-01  9.40000000e-01  4.69720567e-01  3.30000000e+00  8.33270595e-02  2.31182922e+00  2.31182922e+00  9.36299899e-01 
 9.50000000e-01  9.50000000e-01  5.11867771e-01  3.30000000e+00  8.90487171e-02  2.30932029e+00  2.30932029e+00  9.36299899e-01 
 9.60000000e-01  9.60000000e-01  5.52379881e-01  3.30000000e+00  9.49352249e-02  2.30699590e+00  2.30699589e+00  9.36299899e-01 
 9.70000000e-01  9.70000000e-01  5.91012826e-01  3.30000000e+00  1.00978249e-01  2.30484623e+00  2.30484622e+00  9.36299899e-01 
 9.80000000e-01  9.80000000e-01  6.27623489e-01  3.30000000e+00  1.07168861e-01  2.30286076e+00  2.30286077e+00  9.36299899e-01 
 9.90000000e-01  9.90000000e-01  6.62153212e-01  3.30000000e+00  1.13497639e-01  2.30102843e+00  2.30102843e+00  9.36299899e-01 
 1.00000000e+00  1.00000000e+00  6.94607944e-01  3.30000000e+00  1.19954816e-01  2.29933778e+00  2.29933777e+00  9.36299899e-01 
 1.01000000e+00  1.01000000e+00  7.25044859e-01  3.30000000e+00  1.26530458e-01  2.29777717e+00  2.29777717e+00  9.36299899e-01 
 1.02000000e+00  1.02000000e+00  7.53558592e-01  3.30000000e+00  1.33214664e-01  2.29633505e+00  2.29633505e+00  9.36299899e-01 
 1.03000000e+00  1.03000000e+00  7.80268039e-01  3.30000000e+00  1.39997762e-01  2.29500015e+00  2.29500015e+00  9.36299899e-01 
 1.04000000e+00  1.04000000e+00  8.05306819e-01  3.30000000e+00  1.46870485e-01  2.29376169e+00  2.29376170e+00  9.36299899e-01 
 1.05000000e+00  1.05000000e+00  8.28814489e-01  3.30000000e+00  1.53824116e-01  2.29260957e+00  2.29260957e+00  9.36299899e-01 
 1.06000000e+00  1.06000000e+00  8.50929971e-01  3.30000000e+00  1.60850581e-01  2.29153442e+00  2.29153442e+00  9.36299899e-01 
 1.07000000e+00  1.07000000e+00  8.71787223e-01  3.30000000e+00  1.67942516e-01  2.29052775e+00  2.29052776e+00  9.36299899e-01 
 1.08000000e+00  1.08000000e+00  8.91512035e-01  3.30000000e+00  1.75093279e-01  2.28958190e+00  2.28958191e+00  9.36299899e-01 
 1.09000000e+00  1.09000000e+00  9.10220028e-01  3.30000000e+00  1.82296940e-01  2.28869006e+00  2.28869005e+00  9.36299899e-01 
 1.10000000e+00  1.10000000e+00  9.28015960e-01  3.30000000e+00  1.89548249e-01  2.28784618e+00  2.28784618e+00  9.36299899e-01 
 1.11000000e+00  1.11000000e+00  9.44994190e-01  3.30000000e+00  1.96842581e-01  2.28704499e+00  2.28704498e+00  9.36299899e-01 
 1.12000000e+00  1.12000000e+00  9.61238072e-01  3.30000000e+00  2.04175882e-01  2.28628184e+00  2.28628184e+00  9.36299899e-01 
 1.13000000e+00  1.13000000e+00  9.76821870e-01  3.30000000e+00  2.11544607e-01  2.28555271e+00  2.28555271e+00  9.36299899e-01 
 1.14000000e+00  1.14000000e+00  9.91810443e-01  3.30000000e+00  2.18945655e-01  2.28485408e+00  2.28485409e+00  9.36299899e-01 
 1.15000000e+00  1.15000000e+00  1.00626134e+00  3.30000000e+00  2.26376323e-01  2.28418289e+00  2.28418289e+00  9.36299899e-01 
 1.16000000e+00  1.16000000e+00  1.02022452e+00  3.30000000e+00  2.33834244e-01  2.28353647e+00  2.28353648e+00  9.36299899e-01 
 1.17000000e+00  1.17000000e+00  1.03374462e+00  3.30000000e+00  2.41317346e-01  2.28291250e+00  2.28291250e+00  9.36299899e-01 
 1.18000000e+00  1.18000000e+00  1.04685991e+00  3.30000000e+00  2.48823810e-01  2.28230894e+00  2.28230894e+00  9.36299899e-01 
 1.19000000e+00  1.19000000e+00  1.05960491e+00  3.30000000e+00  2.56352035e-01  2.28172401e+00  2.28172401e+00  9.36299899e-01 
 1.20000000e+00  1.20000000e+00  1.07200943e+00  3.30000000e+00  2.63900608e-01  2.28115616e+00  2.28115616e+00  9.36299899e-01 
 1.21000000e+00  1.21000000e+00  1.08410052e+00  3.30000000e+00  2.71468275e-01  2.28060399e+00  2.28060399e+00  9.36299899e-01 
 1.22000000e+00  1.22000000e+00  1.09590163e+00  3.30000000e+00  2.79053922e-01  2.28006629e+00  2.28006629e+00  9.36299899e-01 
 1.23000000e+00  1.23000000e+00  1.10743382e+00  3.30000000e+00  2.86656555e-01  2.27954199e+00  2.27954198e+00  9.36299899e-01 
 1.24000000e+00  1.24000000e+00  1.11871579e+00  3.30000000e+00  2.94275280e-01  2.27903011e+00  2.27903011e+00  9.36299899e-01 
 1.25000000e+00  1.25000000e+00  1.12976436e+00  3.30000000e+00  3.01909297e-01  2.27852980e+00  2.27852980e+00  9.36299899e-01 
 1.26000000e+00  1.26000000e+00  1.14059465e+00  3.30000000e+00  3.09557881e-01  2.27804028e+00  2.27804029e+00  9.36299899e-01 
 1.27000000e+00  1.27000000e+00  1.15122039e+00  3.30000000e+00  3.17220374e-01  2.27756087e+00  2.27756087e+00  9.36299899e-01 
 1.28000000e+00  1.28000000e+00  1.16165375e+00  3.30000000e+00  3.24896178e-01  2.27709094e+00  2.27709093e+00  9.36299899e-01 
 1.29000000e+00  1.29000000e+00  1.17190579e+00  3.30000000e+00  3.32584749e-01  2.27662991e+00  2.27662991e+00  9.36299899e-01 
 1.30000000e+00  1.30000000e+00  1.18198672e+00  3.30000000e+00  3.40285584e-01  2.27617728e+00  2.27617729e+00  9.36299899e-01 
 1.31000000e+00  1.31000000e+00  1.19190579e+00  3.30000000e+00  3.47998225e-01  2.27573258e+00  2.27573259e+00  9.36299899e-01 
 1.32000000e+00  1.32000000e+00  1.20167154e+00  3.30000000e+00  3.55722247e-01  2.27529538e+00  2.27529538e+00  9.36299899e-01 
 1.33000000e+00  1.33000000e+00  1.21129149e+00  3.30000000e+00  3.63457257e-01  2.27486529e+00  2.27486529e+00  9.36299899e-01 
 1.34000000e+00  1.34000000e+00  1.22077293e+00  3.30000000e+00  3.71202890e-01  2.27444194e+00  2.27444194e+00  9.36299899e-01 
 1.35000000e+00  1.35000000e+00  1.23012241e+00  3.30000000e+00  3.78958808e-01  2.27402501e+00  2.27402501e+00  9.36299899e-01 
 1.36000000e+00  1.36000000e+00  1.23934595e+00  3.30000000e+00  3.86724693e-01  2.27361419e+00  2.27361419e+00  9.36299899e-01 
 1.37000000e+00  1.37000000e+00  1.24844920e+00  3.30000000e+00  3.94500250e-01  2.27320920e+00  2.27320920e+00  9.36299899e-01 
 1.38000000e+00  1.38000000e+00  1.25743733e+00  3.30000000e+00  4.02285199e-01  2.27280977e+00  2.27280977e+00  9.36299899e-01 
 1.39000000e+00  1.39000000e+00  1.26631517e+00  3.30000000e+00  4.10079281e-01  2.27241565e+00  2.27241566e+00  9.36299899e-01 
 1.40000000e+00  1.40000000e+00  1.27508746e+00  3.30000000e+00  4.17882248e-01  2.27202663e+00  2.27202663e+00  9.36299899e-01 
 1.41000000e+00  1.41000000e+00  1.28375813e+00  3.30000000e+00  4.25693869e-01  2.27164249e+00  2.27164249e+00  9.36299899e-01 
 1.42000000e+00  1.42000000e+00  1.29233133e+00  3.30000000e+00  4.33513923e-01  2.27126303e+00  2.27126303e+00  9.36299899e-01 
 1.43000000e+00  1.43000000e+00  1.30081061e+00  3.30000000e+00  4.41342201e-01  2.27088806e+00  2.27088806e+00  9.36299899e-01 
 1.44000000e+00  1.44000000e+00  1.30919949e+00  3.30000000e+00  4.49178506e-01  2.27051742e+00  2.27051742e+00  9.36299899e-01 
 1.45000000e+00  1.45000000e+00  1.31750125e+00  3.30000000e+00  4.57022649e-01  2.27015094e+00  2.27015094e+00  9.36299899e-01 
 1.46000000e+00  1.46000000e+00  1.32571905e+00  3.30000000e+00  4.64874450e-01  2.26978845e+00  2.26978845e+00  9.36299899e-01 
 1.47000000e+00  1.47000000e+00  1.33385563e+00  3.30000000e+00  4.72733738e-01  2.26942983e+00  2.26942983e+00  9.36299899e-01 
 1.48000000e+00  1.48000000e+00  1.34191382e+00  3.30000000e+00  4.80600350e-01  2.26907493e+00  2.26907493e+00  9.36299899e-01 
 1.49000000e+00  1.49000000e+00  1.34989599e+00  3.30000000e+00  4.88474128e-01  2.26872363e+00  2.26872363e+00  9.36299899e-01 
 1.50000000e+00  1.50000000e+00  1.35780478e+00  3.30000000e+00  4.96354922e-01  2.26837580e+00  2.26837580e+00  9.36299899e-01 
 1.51000000e+00  1.51000000e+00  1.36564264e+00  3.30000000e+00  5.04242587e-01  2.26803132e+00  2.26803132e+00  9.36299899e-01 
 1.52000000e+00  1.52000000e+00  1.37341145e+00  3.30000000e+00  5.12136986e-01  2.26769009e+00  2.26769009e+00  9.36299899e-01 
 1.53000000e+00  1.53000000e+00  1.38111352e+00  3.30000000e+00  5.20037984e-01  2.26735200e+00  2.26735200e+00  9.36299899e-01 
