 v-sweep         pos             neg             output         
-5.00000000e-02  1.75000000e+00  1.80000000e+00  3.27984574e+00 
-4.99000000e-02  1.75010000e+00  1.80000000e+00  3.27981689e+00 
-4.98000000e-02  1.75020000e+00  1.80000000e+00  3.27978780e+00 
-4.97000000e-02  1.75030000e+00  1.80000000e+00  3.27975865e+00 
-4.96000000e-02  1.75040000e+00  1.80000000e+00  3.27972939e+00 
-4.95000000e-02  1.75050000e+00  1.80000000e+00  3.27970000e+00 
-4.94000000e-02  1.75060000e+00  1.80000000e+00  3.27967049e+00 
-4.93000000e-02  1.75070000e+00  1.80000000e+00  3.27964086e+00 
-4.92000000e-02  1.75080000e+00  1.80000000e+00  3.27961111e+00 
-4.91000000e-02  1.75090000e+00  1.80000000e+00  3.27958123e+00 
-4.90000000e-02  1.75100000e+00  1.80000000e+00  3.27955123e+00 
-4.89000000e-02  1.75110000e+00  1.80000000e+00  3.27952110e+00 
-4.88000000e-02  1.75120000e+00  1.80000000e+00  3.27949085e+00 
-4.87000000e-02  1.75130000e+00  1.80000000e+00  3.27946048e+00 
-4.86000000e-02  1.75140000e+00  1.80000000e+00  3.27942997e+00 
-4.85000000e-02  1.75150000e+00  1.80000000e+00  3.27939934e+00 
-4.84000000e-02  1.75160000e+00  1.80000000e+00  3.27936858e+00 
-4.83000000e-02  1.75170000e+00  1.80000000e+00  3.27933769e+00 
-4.82000000e-02  1.75180000e+00  1.80000000e+00  3.27930667e+00 
-4.81000000e-02  1.75190000e+00  1.80000000e+00  3.27927552e+00 
-4.80000000e-02  1.75200000e+00  1.80000000e+00  3.27924424e+00 
-4.79000000e-02  1.75210000e+00  1.80000000e+00  3.27921283e+00 
-4.78000000e-02  1.75220000e+00  1.80000000e+00  3.27918128e+00 
-4.77000000e-02  1.75230000e+00  1.80000000e+00  3.27914960e+00 
-4.76000000e-02  1.75240000e+00  1.80000000e+00  3.27911779e+00 
-4.75000000e-02  1.75250000e+00  1.80000000e+00  3.27908584e+00 
-4.74000000e-02  1.75260000e+00  1.80000000e+00  3.27905375e+00 
-4.73000000e-02  1.75270000e+00  1.80000000e+00  3.27902153e+00 
-4.72000000e-02  1.75280000e+00  1.80000000e+00  3.27898917e+00 
-4.71000000e-02  1.75290000e+00  1.80000000e+00  3.27895667e+00 
-4.70000000e-02  1.75300000e+00  1.80000000e+00  3.27892403e+00 
-4.69000000e-02  1.75310000e+00  1.80000000e+00  3.27889126e+00 
-4.68000000e-02  1.75320000e+00  1.80000000e+00  3.27885834e+00 
-4.67000000e-02  1.75330000e+00  1.80000000e+00  3.27882527e+00 
-4.66000000e-02  1.75340000e+00  1.80000000e+00  3.27879207e+00 
-4.65000000e-02  1.75350000e+00  1.80000000e+00  3.27875872e+00 
-4.64000000e-02  1.75360000e+00  1.80000000e+00  3.27872523e+00 
-4.63000000e-02  1.75370000e+00  1.80000000e+00  3.27869159e+00 
-4.62000000e-02  1.75380000e+00  1.80000000e+00  3.27865781e+00 
-4.61000000e-02  1.75390000e+00  1.80000000e+00  3.27862387e+00 
-4.60000000e-02  1.75400000e+00  1.80000000e+00  3.27858979e+00 
-4.59000000e-02  1.75410000e+00  1.80000000e+00  3.27855556e+00 
-4.58000000e-02  1.75420000e+00  1.80000000e+00  3.27852119e+00 
-4.57000000e-02  1.75430000e+00  1.80000000e+00  3.27848666e+00 
-4.56000000e-02  1.75440000e+00  1.80000000e+00  3.27845198e+00 
-4.55000000e-02  1.75450000e+00  1.80000000e+00  3.27841714e+00 
-4.54000000e-02  1.75460000e+00  1.80000000e+00  3.27838215e+00 
-4.53000000e-02  1.75470000e+00  1.80000000e+00  3.27834701e+00 
-4.52000000e-02  1.75480000e+00  1.80000000e+00  3.27831171e+00 
-4.51000000e-02  1.75490000e+00  1.80000000e+00  3.27827626e+00 
-4.50000000e-02  1.75500000e+00  1.80000000e+00  3.27824065e+00 
-4.49000000e-02  1.75510000e+00  1.80000000e+00  3.27820487e+00 
-4.48000000e-02  1.75520000e+00  1.80000000e+00  3.27816894e+00 
-4.47000000e-02  1.75530000e+00  1.80000000e+00  3.27813285e+00 
-4.46000000e-02  1.75540000e+00  1.80000000e+00  3.27809660e+00 
-4.45000000e-02  1.75550000e+00  1.80000000e+00  3.27806019e+00 
-4.44000000e-02  1.75560000e+00  1.80000000e+00  3.27802361e+00 
-4.43000000e-02  1.75570000e+00  1.80000000e+00  3.27798686e+00 
-4.42000000e-02  1.75580000e+00  1.80000000e+00  3.27794995e+00 
-4.41000000e-02  1.75590000e+00  1.80000000e+00  3.27791288e+00 
-4.40000000e-02  1.75600000e+00  1.80000000e+00  3.27787563e+00 
-4.39000000e-02  1.75610000e+00  1.80000000e+00  3.27783822e+00 
-4.38000000e-02  1.75620000e+00  1.80000000e+00  3.27780064e+00 
-4.37000000e-02  1.75630000e+00  1.80000000e+00  3.27776288e+00 
-4.36000000e-02  1.75640000e+00  1.80000000e+00  3.27772496e+00 
-4.35000000e-02  1.75650000e+00  1.80000000e+00  3.27768686e+00 
-4.34000000e-02  1.75660000e+00  1.80000000e+00  3.27764858e+00 
-4.33000000e-02  1.75670000e+00  1.80000000e+00  3.27761013e+00 
-4.32000000e-02  1.75680000e+00  1.80000000e+00  3.27757151e+00 
-4.31000000e-02  1.75690000e+00  1.80000000e+00  3.27753270e+00 
-4.30000000e-02  1.75700000e+00  1.80000000e+00  3.27749372e+00 
-4.29000000e-02  1.75710000e+00  1.80000000e+00  3.27745455e+00 
-4.28000000e-02  1.75720000e+00  1.80000000e+00  3.27741521e+00 
-4.27000000e-02  1.75730000e+00  1.80000000e+00  3.27737568e+00 
-4.26000000e-02  1.75740000e+00  1.80000000e+00  3.27733596e+00 
-4.25000000e-02  1.75750000e+00  1.80000000e+00  3.27729607e+00 
-4.24000000e-02  1.75760000e+00  1.80000000e+00  3.27725598e+00 
-4.23000000e-02  1.75770000e+00  1.80000000e+00  3.27721571e+00 
-4.22000000e-02  1.75780000e+00  1.80000000e+00  3.27717525e+00 
-4.21000000e-02  1.75790000e+00  1.80000000e+00  3.27713460e+00 
-4.20000000e-02  1.75800000e+00  1.80000000e+00  3.27709375e+00 
-4.19000000e-02  1.75810000e+00  1.80000000e+00  3.27705272e+00 
-4.18000000e-02  1.75820000e+00  1.80000000e+00  3.27701149e+00 
-4.17000000e-02  1.75830000e+00  1.80000000e+00  3.27697006e+00 
-4.16000000e-02  1.75840000e+00  1.80000000e+00  3.27692844e+00 
-4.15000000e-02  1.75850000e+00  1.80000000e+00  3.27688662e+00 
-4.14000000e-02  1.75860000e+00  1.80000000e+00  3.27684460e+00 
-4.13000000e-02  1.75870000e+00  1.80000000e+00  3.27680237e+00 
-4.12000000e-02  1.75880000e+00  1.80000000e+00  3.27675995e+00 
-4.11000000e-02  1.75890000e+00  1.80000000e+00  3.27671732e+00 
-4.10000000e-02  1.75900000e+00  1.80000000e+00  3.27667449e+00 
-4.09000000e-02  1.75910000e+00  1.80000000e+00  3.27663145e+00 
-4.08000000e-02  1.75920000e+00  1.80000000e+00  3.27658820e+00 
-4.07000000e-02  1.75930000e+00  1.80000000e+00  3.27654475e+00 
-4.06000000e-02  1.75940000e+00  1.80000000e+00  3.27650108e+00 
-4.05000000e-02  1.75950000e+00  1.80000000e+00  3.27645720e+00 
-4.04000000e-02  1.75960000e+00  1.80000000e+00  3.27641310e+00 
-4.03000000e-02  1.75970000e+00  1.80000000e+00  3.27636879e+00 
-4.02000000e-02  1.75980000e+00  1.80000000e+00  3.27632427e+00 
-4.01000000e-02  1.75990000e+00  1.80000000e+00  3.27627952e+00 
-4.00000000e-02  1.76000000e+00  1.80000000e+00  3.27623456e+00 
-3.99000000e-02  1.76010000e+00  1.80000000e+00  3.27618937e+00 
-3.98000000e-02  1.76020000e+00  1.80000000e+00  3.27614396e+00 
-3.97000000e-02  1.76030000e+00  1.80000000e+00  3.27609832e+00 
-3.96000000e-02  1.76040000e+00  1.80000000e+00  3.27605246e+00 
-3.95000000e-02  1.76050000e+00  1.80000000e+00  3.27600637e+00 
-3.94000000e-02  1.76060000e+00  1.80000000e+00  3.27596005e+00 
-3.93000000e-02  1.76070000e+00  1.80000000e+00  3.27591350e+00 
-3.92000000e-02  1.76080000e+00  1.80000000e+00  3.27586672e+00 
-3.91000000e-02  1.76090000e+00  1.80000000e+00  3.27581970e+00 
-3.90000000e-02  1.76100000e+00  1.80000000e+00  3.27577244e+00 
-3.89000000e-02  1.76110000e+00  1.80000000e+00  3.27572495e+00 
-3.88000000e-02  1.76120000e+00  1.80000000e+00  3.27567721e+00 
-3.87000000e-02  1.76130000e+00  1.80000000e+00  3.27562923e+00 
-3.86000000e-02  1.76140000e+00  1.80000000e+00  3.27558101e+00 
-3.85000000e-02  1.76150000e+00  1.80000000e+00  3.27553255e+00 
-3.84000000e-02  1.76160000e+00  1.80000000e+00  3.27548383e+00 
-3.83000000e-02  1.76170000e+00  1.80000000e+00  3.27543487e+00 
-3.82000000e-02  1.76180000e+00  1.80000000e+00  3.27538566e+00 
-3.81000000e-02  1.76190000e+00  1.80000000e+00  3.27533619e+00 
-3.80000000e-02  1.76200000e+00  1.80000000e+00  3.27528647e+00 
-3.79000000e-02  1.76210000e+00  1.80000000e+00  3.27523649e+00 
-3.78000000e-02  1.76220000e+00  1.80000000e+00  3.27518625e+00 
-3.77000000e-02  1.76230000e+00  1.80000000e+00  3.27513576e+00 
-3.76000000e-02  1.76240000e+00  1.80000000e+00  3.27508500e+00 
-3.75000000e-02  1.76250000e+00  1.80000000e+00  3.27503397e+00 
-3.74000000e-02  1.76260000e+00  1.80000000e+00  3.27498268e+00 
-3.73000000e-02  1.76270000e+00  1.80000000e+00  3.27493112e+00 
-3.72000000e-02  1.76280000e+00  1.80000000e+00  3.27487928e+00 
-3.71000000e-02  1.76290000e+00  1.80000000e+00  3.27482718e+00 
-3.70000000e-02  1.76300000e+00  1.80000000e+00  3.27477480e+00 
-3.69000000e-02  1.76310000e+00  1.80000000e+00  3.27472214e+00 
-3.68000000e-02  1.76320000e+00  1.80000000e+00  3.27466920e+00 
-3.67000000e-02  1.76330000e+00  1.80000000e+00  3.27461598e+00 
-3.66000000e-02  1.76340000e+00  1.80000000e+00  3.27456248e+00 
-3.65000000e-02  1.76350000e+00  1.80000000e+00  3.27450869e+00 
-3.64000000e-02  1.76360000e+00  1.80000000e+00  3.27445461e+00 
-3.63000000e-02  1.76370000e+00  1.80000000e+00  3.27440025e+00 
-3.62000000e-02  1.76380000e+00  1.80000000e+00  3.27434558e+00 
-3.61000000e-02  1.76390000e+00  1.80000000e+00  3.27429063e+00 
-3.60000000e-02  1.76400000e+00  1.80000000e+00  3.27423537e+00 
-3.59000000e-02  1.76410000e+00  1.80000000e+00  3.27417982e+00 
-3.58000000e-02  1.76420000e+00  1.80000000e+00  3.27412396e+00 
-3.57000000e-02  1.76430000e+00  1.80000000e+00  3.27406780e+00 
-3.56000000e-02  1.76440000e+00  1.80000000e+00  3.27401133e+00 
-3.55000000e-02  1.76450000e+00  1.80000000e+00  3.27395455e+00 
-3.54000000e-02  1.76460000e+00  1.80000000e+00  3.27389745e+00 
-3.53000000e-02  1.76470000e+00  1.80000000e+00  3.27384005e+00 
-3.52000000e-02  1.76480000e+00  1.80000000e+00  3.27378232e+00 
-3.51000000e-02  1.76490000e+00  1.80000000e+00  3.27372427e+00 
-3.50000000e-02  1.76500000e+00  1.80000000e+00  3.27366590e+00 
-3.49000000e-02  1.76510000e+00  1.80000000e+00  3.27360721e+00 
-3.48000000e-02  1.76520000e+00  1.80000000e+00  3.27354819e+00 
-3.47000000e-02  1.76530000e+00  1.80000000e+00  3.27348883e+00 
-3.46000000e-02  1.76540000e+00  1.80000000e+00  3.27342914e+00 
-3.45000000e-02  1.76550000e+00  1.80000000e+00  3.27336912e+00 
-3.44000000e-02  1.76560000e+00  1.80000000e+00  3.27330875e+00 
-3.43000000e-02  1.76570000e+00  1.80000000e+00  3.27324805e+00 
-3.42000000e-02  1.76580000e+00  1.80000000e+00  3.27318700e+00 
-3.41000000e-02  1.76590000e+00  1.80000000e+00  3.27312560e+00 
-3.40000000e-02  1.76600000e+00  1.80000000e+00  3.27306384e+00 
-3.39000000e-02  1.76610000e+00  1.80000000e+00  3.27300174e+00 
-3.38000000e-02  1.76620000e+00  1.80000000e+00  3.27293927e+00 
-3.37000000e-02  1.76630000e+00  1.80000000e+00  3.27287645e+00 
-3.36000000e-02  1.76640000e+00  1.80000000e+00  3.27281326e+00 
-3.35000000e-02  1.76650000e+00  1.80000000e+00  3.27274971e+00 
-3.34000000e-02  1.76660000e+00  1.80000000e+00  3.27268578e+00 
-3.33000000e-02  1.76670000e+00  1.80000000e+00  3.27262149e+00 
-3.32000000e-02  1.76680000e+00  1.80000000e+00  3.27255681e+00 
-3.31000000e-02  1.76690000e+00  1.80000000e+00  3.27249176e+00 
-3.30000000e-02  1.76700000e+00  1.80000000e+00  3.27242633e+00 
-3.29000000e-02  1.76710000e+00  1.80000000e+00  3.27236050e+00 
-3.28000000e-02  1.76720000e+00  1.80000000e+00  3.27229429e+00 
-3.27000000e-02  1.76730000e+00  1.80000000e+00  3.27222768e+00 
-3.26000000e-02  1.76740000e+00  1.80000000e+00  3.27216068e+00 
-3.25000000e-02  1.76750000e+00  1.80000000e+00  3.27209328e+00 
-3.24000000e-02  1.76760000e+00  1.80000000e+00  3.27202547e+00 
-3.23000000e-02  1.76770000e+00  1.80000000e+00  3.27195726e+00 
-3.22000000e-02  1.76780000e+00  1.80000000e+00  3.27188863e+00 
-3.21000000e-02  1.76790000e+00  1.80000000e+00  3.27181959e+00 
-3.20000000e-02  1.76800000e+00  1.80000000e+00  3.27175013e+00 
-3.19000000e-02  1.76810000e+00  1.80000000e+00  3.27168025e+00 
-3.18000000e-02  1.76820000e+00  1.80000000e+00  3.27160994e+00 
-3.17000000e-02  1.76830000e+00  1.80000000e+00  3.27153920e+00 
-3.16000000e-02  1.76840000e+00  1.80000000e+00  3.27146802e+00 
-3.15000000e-02  1.76850000e+00  1.80000000e+00  3.27139641e+00 
-3.14000000e-02  1.76860000e+00  1.80000000e+00  3.27132435e+00 
-3.13000000e-02  1.76870000e+00  1.80000000e+00  3.27125185e+00 
-3.12000000e-02  1.76880000e+00  1.80000000e+00  3.27117889e+00 
-3.11000000e-02  1.76890000e+00  1.80000000e+00  3.27110549e+00 
-3.10000000e-02  1.76900000e+00  1.80000000e+00  3.27103162e+00 
-3.09000000e-02  1.76910000e+00  1.80000000e+00  3.27095728e+00 
-3.08000000e-02  1.76920000e+00  1.80000000e+00  3.27088248e+00 
-3.07000000e-02  1.76930000e+00  1.80000000e+00  3.27080721e+00 
-3.06000000e-02  1.76940000e+00  1.80000000e+00  3.27073146e+00 
-3.05000000e-02  1.76950000e+00  1.80000000e+00  3.27065522e+00 
-3.04000000e-02  1.76960000e+00  1.80000000e+00  3.27057850e+00 
-3.03000000e-02  1.76970000e+00  1.80000000e+00  3.27050129e+00 
-3.02000000e-02  1.76980000e+00  1.80000000e+00  3.27042358e+00 
-3.01000000e-02  1.76990000e+00  1.80000000e+00  3.27034537e+00 
-3.00000000e-02  1.77000000e+00  1.80000000e+00  3.27026666e+00 
-2.99000000e-02  1.77010000e+00  1.80000000e+00  3.27018743e+00 
-2.98000000e-02  1.77020000e+00  1.80000000e+00  3.27010769e+00 
-2.97000000e-02  1.77030000e+00  1.80000000e+00  3.27002743e+00 
-2.96000000e-02  1.77040000e+00  1.80000000e+00  3.26994664e+00 
-2.95000000e-02  1.77050000e+00  1.80000000e+00  3.26986532e+00 
-2.94000000e-02  1.77060000e+00  1.80000000e+00  3.26978346e+00 
-2.93000000e-02  1.77070000e+00  1.80000000e+00  3.26970107e+00 
-2.92000000e-02  1.77080000e+00  1.80000000e+00  3.26961812e+00 
-2.91000000e-02  1.77090000e+00  1.80000000e+00  3.26953462e+00 
-2.90000000e-02  1.77100000e+00  1.80000000e+00  3.26945056e+00 
-2.89000000e-02  1.77110000e+00  1.80000000e+00  3.26936594e+00 
-2.88000000e-02  1.77120000e+00  1.80000000e+00  3.26928074e+00 
-2.87000000e-02  1.77130000e+00  1.80000000e+00  3.26919497e+00 
-2.86000000e-02  1.77140000e+00  1.80000000e+00  3.26910862e+00 
-2.85000000e-02  1.77150000e+00  1.80000000e+00  3.26902168e+00 
-2.84000000e-02  1.77160000e+00  1.80000000e+00  3.26893414e+00 
-2.83000000e-02  1.77170000e+00  1.80000000e+00  3.26884601e+00 
-2.82000000e-02  1.77180000e+00  1.80000000e+00  3.26875726e+00 
-2.81000000e-02  1.77190000e+00  1.80000000e+00  3.26866791e+00 
-2.80000000e-02  1.77200000e+00  1.80000000e+00  3.26857793e+00 
-2.79000000e-02  1.77210000e+00  1.80000000e+00  3.26848733e+00 
-2.78000000e-02  1.77220000e+00  1.80000000e+00  3.26839609e+00 
-2.77000000e-02  1.77230000e+00  1.80000000e+00  3.26830422e+00 
-2.76000000e-02  1.77240000e+00  1.80000000e+00  3.26821170e+00 
-2.75000000e-02  1.77250000e+00  1.80000000e+00  3.26811852e+00 
-2.74000000e-02  1.77260000e+00  1.80000000e+00  3.26802468e+00 
-2.73000000e-02  1.77270000e+00  1.80000000e+00  3.26793018e+00 
-2.72000000e-02  1.77280000e+00  1.80000000e+00  3.26783500e+00 
-2.71000000e-02  1.77290000e+00  1.80000000e+00  3.26773914e+00 
-2.70000000e-02  1.77300000e+00  1.80000000e+00  3.26764259e+00 
-2.69000000e-02  1.77310000e+00  1.80000000e+00  3.26754533e+00 
-2.68000000e-02  1.77320000e+00  1.80000000e+00  3.26744738e+00 
-2.67000000e-02  1.77330000e+00  1.80000000e+00  3.26734871e+00 
-2.66000000e-02  1.77340000e+00  1.80000000e+00  3.26724932e+00 
-2.65000000e-02  1.77350000e+00  1.80000000e+00  3.26714920e+00 
-2.64000000e-02  1.77360000e+00  1.80000000e+00  3.26704834e+00 
-2.63000000e-02  1.77370000e+00  1.80000000e+00  3.26694674e+00 
-2.62000000e-02  1.77380000e+00  1.80000000e+00  3.26684438e+00 
-2.61000000e-02  1.77390000e+00  1.80000000e+00  3.26674125e+00 
-2.60000000e-02  1.77400000e+00  1.80000000e+00  3.26663736e+00 
-2.59000000e-02  1.77410000e+00  1.80000000e+00  3.26653268e+00 
-2.58000000e-02  1.77420000e+00  1.80000000e+00  3.26642722e+00 
-2.57000000e-02  1.77430000e+00  1.80000000e+00  3.26632095e+00 
-2.56000000e-02  1.77440000e+00  1.80000000e+00  3.26621388e+00 
-2.55000000e-02  1.77450000e+00  1.80000000e+00  3.26610599e+00 
-2.54000000e-02  1.77460000e+00  1.80000000e+00  3.26599727e+00 
-2.53000000e-02  1.77470000e+00  1.80000000e+00  3.26588771e+00 
-2.52000000e-02  1.77480000e+00  1.80000000e+00  3.26577731e+00 
-2.51000000e-02  1.77490000e+00  1.80000000e+00  3.26566605e+00 
-2.50000000e-02  1.77500000e+00  1.80000000e+00  3.26555392e+00 
-2.49000000e-02  1.77510000e+00  1.80000000e+00  3.26544091e+00 
-2.48000000e-02  1.77520000e+00  1.80000000e+00  3.26532702e+00 
-2.47000000e-02  1.77530000e+00  1.80000000e+00  3.26521222e+00 
-2.46000000e-02  1.77540000e+00  1.80000000e+00  3.26509652e+00 
-2.45000000e-02  1.77550000e+00  1.80000000e+00  3.26497989e+00 
-2.44000000e-02  1.77560000e+00  1.80000000e+00  3.26486233e+00 
-2.43000000e-02  1.77570000e+00  1.80000000e+00  3.26474382e+00 
-2.42000000e-02  1.77580000e+00  1.80000000e+00  3.26462436e+00 
-2.41000000e-02  1.77590000e+00  1.80000000e+00  3.26450393e+00 
-2.40000000e-02  1.77600000e+00  1.80000000e+00  3.26438252e+00 
-2.39000000e-02  1.77610000e+00  1.80000000e+00  3.26426011e+00 
-2.38000000e-02  1.77620000e+00  1.80000000e+00  3.26413670e+00 
-2.37000000e-02  1.77630000e+00  1.80000000e+00  3.26401227e+00 
-2.36000000e-02  1.77640000e+00  1.80000000e+00  3.26388681e+00 
-2.35000000e-02  1.77650000e+00  1.80000000e+00  3.26376031e+00 
-2.34000000e-02  1.77660000e+00  1.80000000e+00  3.26363275e+00 
-2.33000000e-02  1.77670000e+00  1.80000000e+00  3.26350412e+00 
-2.32000000e-02  1.77680000e+00  1.80000000e+00  3.26337440e+00 
-2.31000000e-02  1.77690000e+00  1.80000000e+00  3.26324358e+00 
-2.30000000e-02  1.77700000e+00  1.80000000e+00  3.26311164e+00 
-2.29000000e-02  1.77710000e+00  1.80000000e+00  3.26297858e+00 
-2.28000000e-02  1.77720000e+00  1.80000000e+00  3.26284437e+00 
-2.27000000e-02  1.77730000e+00  1.80000000e+00  3.26270901e+00 
-2.26000000e-02  1.77740000e+00  1.80000000e+00  3.26257247e+00 
-2.25000000e-02  1.77750000e+00  1.80000000e+00  3.26243474e+00 
-2.24000000e-02  1.77760000e+00  1.80000000e+00  3.26229580e+00 
-2.23000000e-02  1.77770000e+00  1.80000000e+00  3.26215564e+00 
-2.22000000e-02  1.77780000e+00  1.80000000e+00  3.26201423e+00 
-2.21000000e-02  1.77790000e+00  1.80000000e+00  3.26187158e+00 
-2.20000000e-02  1.77800000e+00  1.80000000e+00  3.26172764e+00 
-2.19000000e-02  1.77810000e+00  1.80000000e+00  3.26158242e+00 
-2.18000000e-02  1.77820000e+00  1.80000000e+00  3.26143588e+00 
-2.17000000e-02  1.77830000e+00  1.80000000e+00  3.26128802e+00 
-2.16000000e-02  1.77840000e+00  1.80000000e+00  3.26113881e+00 
-2.15000000e-02  1.77850000e+00  1.80000000e+00  3.26098823e+00 
-2.14000000e-02  1.77860000e+00  1.80000000e+00  3.26083627e+00 
-2.13000000e-02  1.77870000e+00  1.80000000e+00  3.26068290e+00 
-2.12000000e-02  1.77880000e+00  1.80000000e+00  3.26052811e+00 
-2.11000000e-02  1.77890000e+00  1.80000000e+00  3.26037187e+00 
-2.10000000e-02  1.77900000e+00  1.80000000e+00  3.26021416e+00 
-2.09000000e-02  1.77910000e+00  1.80000000e+00  3.26005497e+00 
-2.08000000e-02  1.77920000e+00  1.80000000e+00  3.25989426e+00 
-2.07000000e-02  1.77930000e+00  1.80000000e+00  3.25973202e+00 
-2.06000000e-02  1.77940000e+00  1.80000000e+00  3.25956823e+00 
-2.05000000e-02  1.77950000e+00  1.80000000e+00  3.25940285e+00 
-2.04000000e-02  1.77960000e+00  1.80000000e+00  3.25923588e+00 
-2.03000000e-02  1.77970000e+00  1.80000000e+00  3.25906727e+00 
-2.02000000e-02  1.77980000e+00  1.80000000e+00  3.25889702e+00 
-2.01000000e-02  1.77990000e+00  1.80000000e+00  3.25872508e+00 
-2.00000000e-02  1.78000000e+00  1.80000000e+00  3.25855145e+00 
-1.99000000e-02  1.78010000e+00  1.80000000e+00  3.25837609e+00 
-1.98000000e-02  1.78020000e+00  1.80000000e+00  3.25819897e+00 
-1.97000000e-02  1.78030000e+00  1.80000000e+00  3.25802006e+00 
-1.96000000e-02  1.78040000e+00  1.80000000e+00  3.25783935e+00 
-1.95000000e-02  1.78050000e+00  1.80000000e+00  3.25765680e+00 
