 v-sweep         i(V4)           i(V5)          
 1.00000000e-01  1.41491873e-05  1.76102415e-06 
 2.00000000e-01  1.32725829e-05  2.67585343e-06 
 3.00000000e-01  1.22193833e-05  3.59554308e-06 
 4.00000000e-01  1.11106736e-05  4.56571605e-06 
 5.00000000e-01  9.96987585e-06  5.56381283e-06 
 6.00000000e-01  8.79770574e-06  6.58548198e-06 
 7.00000000e-01  7.61502142e-06  7.61027630e-06 
 8.00000000e-01  6.43793026e-06  8.62232586e-06 
 9.00000000e-01  5.28116628e-06  9.60723382e-06 
 1.00000000e+00  4.16134907e-06  1.05499273e-05 
 1.10000000e+00  3.10176669e-06  1.14284857e-05 
 1.20000000e+00  2.12145028e-06  1.22339287e-05 
 1.30000000e+00  1.25837717e-06  1.29351086e-05 
 1.40000000e+00  5.75432743e-07  1.34847133e-05 
 1.50000000e+00  1.64065892e-07  1.38135652e-05 
 1.60000000e+00  2.61519591e-08  1.39234493e-05 
 1.70000000e+00  3.00642806e-09  1.39418729e-05 
 1.80000000e+00  2.90950846e-10  1.39440340e-05 
 1.90000000e+00  2.82172808e-11  1.39442431e-05 
 2.00000000e+00  4.66732203e-12  1.39442619e-05 
 2.10000000e+00  3.41262492e-12  1.39442629e-05 
 2.20000000e+00  3.30926315e-12  1.39442630e-05 
 2.30000000e+00  3.30076856e-12  1.39442630e-05 
 2.40000000e+00  3.30007126e-12  1.39442630e-05 
 2.50000000e+00  3.30001493e-12  1.39442630e-05 
 2.60000000e+00  3.30001260e-12  1.39442630e-05 
 2.70000000e+00  3.30001775e-12  1.39442630e-05 
 2.80000000e+00  3.30002979e-12  1.39442630e-05 
 2.90000000e+00  3.30005458e-12  1.39442630e-05 
 3.00000000e+00  3.30010290e-12  1.39442630e-05 
 3.10000000e+00  3.30019269e-12  1.39442630e-05 
 3.20000000e+00  3.30035264e-12  1.39442630e-05 
 3.30000000e+00  3.30062694e-12  1.39442630e-05 
