 v-sweep         i(V4)           i(V5)          
 1.00000000e-01  4.12842419e-06  1.89214785e-05 
 1.01000000e-01  4.13901021e-06  1.89098256e-05 
 1.02000000e-01  4.14960914e-06  1.88981591e-05 
 1.03000000e-01  4.16021128e-06  1.88864892e-05 
 1.04000000e-01  4.17081985e-06  1.88748124e-05 
 1.05000000e-01  4.18143483e-06  1.88631288e-05 
 1.06000000e-01  4.19205620e-06  1.88514385e-05 
 1.07000000e-01  4.20268394e-06  1.88397414e-05 
 1.08000000e-01  4.21331805e-06  1.88280375e-05 
 1.09000000e-01  4.22395850e-06  1.88163269e-05 
 1.10000000e-01  4.23460527e-06  1.88046095e-05 
 1.11000000e-01  4.24525836e-06  1.87928855e-05 
 1.12000000e-01  4.25591774e-06  1.87811547e-05 
 1.13000000e-01  4.26658340e-06  1.87694173e-05 
 1.14000000e-01  4.27725533e-06  1.87576732e-05 
 1.15000000e-01  4.28793350e-06  1.87459224e-05 
 1.16000000e-01  4.29861791e-06  1.87341650e-05 
 1.17000000e-01  4.30930853e-06  1.87224010e-05 
 1.18000000e-01  4.32000534e-06  1.87106304e-05 
 1.19000000e-01  4.33070835e-06  1.86988532e-05 
 1.20000000e-01  4.34141752e-06  1.86870695e-05 
 1.21000000e-01  4.35213284e-06  1.86752791e-05 
 1.22000000e-01  4.36285431e-06  1.86634823e-05 
 1.23000000e-01  4.37358189e-06  1.86516789e-05 
 1.24000000e-01  4.38431558e-06  1.86398689e-05 
 1.25000000e-01  4.39505535e-06  1.86280525e-05 
 1.26000000e-01  4.40580120e-06  1.86162296e-05 
 1.27000000e-01  4.41655312e-06  1.86044003e-05 
 1.28000000e-01  4.42731106e-06  1.85925644e-05 
 1.29000000e-01  4.43807505e-06  1.85807222e-05 
 1.30000000e-01  4.44884504e-06  1.85688735e-05 
 1.31000000e-01  4.45962103e-06  1.85570184e-05 
 1.32000000e-01  4.47040299e-06  1.85451569e-05 
 1.33000000e-01  4.48119093e-06  1.85332890e-05 
 1.34000000e-01  4.49198482e-06  1.85214148e-05 
 1.35000000e-01  4.50278464e-06  1.85095341e-05 
 1.36000000e-01  4.51359038e-06  1.84976472e-05 
 1.37000000e-01  4.52440202e-06  1.84857540e-05 
 1.38000000e-01  4.53521955e-06  1.84738544e-05 
 1.39000000e-01  4.54604295e-06  1.84619485e-05 
 1.40000000e-01  4.55687222e-06  1.84500364e-05 
 1.41000000e-01  4.56770732e-06  1.84381180e-05 
 1.42000000e-01  4.57854826e-06  1.84261933e-05 
 1.43000000e-01  4.58939501e-06  1.84142624e-05 
 1.44000000e-01  4.60024755e-06  1.84023253e-05 
 1.45000000e-01  4.61110588e-06  1.83903820e-05 
 1.46000000e-01  4.62196998e-06  1.83784325e-05 
 1.47000000e-01  4.63283982e-06  1.83664768e-05 
 1.48000000e-01  4.64371541e-06  1.83545149e-05 
 1.49000000e-01  4.65459671e-06  1.83425469e-05 
 1.50000000e-01  4.66548373e-06  1.83305728e-05 
 1.51000000e-01  4.67637644e-06  1.83185925e-05 
 1.52000000e-01  4.68727482e-06  1.83066061e-05 
 1.53000000e-01  4.69817886e-06  1.82946137e-05 
 1.54000000e-01  4.70908856e-06  1.82826151e-05 
 1.55000000e-01  4.72000388e-06  1.82706105e-05 
 1.56000000e-01  4.73092483e-06  1.82585999e-05 
 1.57000000e-01  4.74185138e-06  1.82465832e-05 
 1.58000000e-01  4.75278351e-06  1.82345604e-05 
 1.59000000e-01  4.76372122e-06  1.82225317e-05 
 1.60000000e-01  4.77466448e-06  1.82104970e-05 
 1.61000000e-01  4.78561329e-06  1.81984563e-05 
 1.62000000e-01  4.79656763e-06  1.81864096e-05 
 1.63000000e-01  4.80752749e-06  1.81743570e-05 
 1.64000000e-01  4.81849284e-06  1.81622984e-05 
 1.65000000e-01  4.82946368e-06  1.81502339e-05 
 1.66000000e-01  4.84043999e-06  1.81381635e-05 
 1.67000000e-01  4.85142176e-06  1.81260872e-05 
 1.68000000e-01  4.86240897e-06  1.81140050e-05 
 1.69000000e-01  4.87340160e-06  1.81019170e-05 
 1.70000000e-01  4.88439965e-06  1.80898230e-05 
 1.71000000e-01  4.89540309e-06  1.80777233e-05 
 1.72000000e-01  4.90641192e-06  1.80656177e-05 
 1.73000000e-01  4.91742612e-06  1.80535063e-05 
 1.74000000e-01  4.92844567e-06  1.80413891e-05 
 1.75000000e-01  4.93947055e-06  1.80292661e-05 
 1.76000000e-01  4.95050077e-06  1.80171374e-05 
 1.77000000e-01  4.96153630e-06  1.80050028e-05 
 1.78000000e-01  4.97257712e-06  1.79928626e-05 
 1.79000000e-01  4.98362322e-06  1.79807166e-05 
 1.80000000e-01  4.99467460e-06  1.79685648e-05 
 1.81000000e-01  5.00573123e-06  1.79564074e-05 
 1.82000000e-01  5.01679310e-06  1.79442443e-05 
 1.83000000e-01  5.02786019e-06  1.79320755e-05 
 1.84000000e-01  5.03893249e-06  1.79199010e-05 
 1.85000000e-01  5.05000999e-06  1.79077209e-05 
 1.86000000e-01  5.06109267e-06  1.78955352e-05 
 1.87000000e-01  5.07218052e-06  1.78833438e-05 
 1.88000000e-01  5.08327353e-06  1.78711468e-05 
 1.89000000e-01  5.09437167e-06  1.78589442e-05 
 1.90000000e-01  5.10547494e-06  1.78467360e-05 
 1.91000000e-01  5.11658333e-06  1.78345223e-05 
 1.92000000e-01  5.12769680e-06  1.78223030e-05 
 1.93000000e-01  5.13881537e-06  1.78100781e-05 
 1.94000000e-01  5.14993900e-06  1.77978477e-05 
 1.95000000e-01  5.16106769e-06  1.77856118e-05 
 1.96000000e-01  5.17220142e-06  1.77733704e-05 
 1.97000000e-01  5.18334017e-06  1.77611235e-05 
 1.98000000e-01  5.19448394e-06  1.77488711e-05 
 1.99000000e-01  5.20563271e-06  1.77366133e-05 
 2.00000000e-01  5.21678647e-06  1.77243500e-05 
 2.01000000e-01  5.22794519e-06  1.77120812e-05 
 2.02000000e-01  5.23910887e-06  1.76998071e-05 
 2.03000000e-01  5.25027750e-06  1.76875275e-05 
 2.04000000e-01  5.26145106e-06  1.76752425e-05 
 2.05000000e-01  5.27262953e-06  1.76629521e-05 
 2.06000000e-01  5.28381291e-06  1.76506564e-05 
 2.07000000e-01  5.29500117e-06  1.76383553e-05 
 2.08000000e-01  5.30619430e-06  1.76260489e-05 
 2.09000000e-01  5.31739230e-06  1.76137371e-05 
 2.10000000e-01  5.32859515e-06  1.76014200e-05 
 2.11000000e-01  5.33980283e-06  1.75890976e-05 
 2.12000000e-01  5.35101532e-06  1.75767698e-05 
 2.13000000e-01  5.36223263e-06  1.75644368e-05 
 2.14000000e-01  5.37345472e-06  1.75520986e-05 
 2.15000000e-01  5.38468159e-06  1.75397551e-05 
 2.16000000e-01  5.39591323e-06  1.75274063e-05 
 2.17000000e-01  5.40714962e-06  1.75150523e-05 
 2.18000000e-01  5.41839075e-06  1.75026931e-05 
 2.19000000e-01  5.42963659e-06  1.74903287e-05 
 2.20000000e-01  5.44088715e-06  1.74779590e-05 
 2.21000000e-01  5.45214241e-06  1.74655843e-05 
 2.22000000e-01  5.46340235e-06  1.74532043e-05 
 2.23000000e-01  5.47466695e-06  1.74408192e-05 
 2.24000000e-01  5.48593622e-06  1.74284289e-05 
 2.25000000e-01  5.49721012e-06  1.74160335e-05 
 2.26000000e-01  5.50848865e-06  1.74036330e-05 
 2.27000000e-01  5.51977180e-06  1.73912274e-05 
 2.28000000e-01  5.53105955e-06  1.73788167e-05 
 2.29000000e-01  5.54235189e-06  1.73664009e-05 
 2.30000000e-01  5.55364880e-06  1.73539801e-05 
 2.31000000e-01  5.56495028e-06  1.73415542e-05 
 2.32000000e-01  5.57625630e-06  1.73291233e-05 
 2.33000000e-01  5.58756685e-06  1.73166873e-05 
 2.34000000e-01  5.59888193e-06  1.73042463e-05 
 2.35000000e-01  5.61020152e-06  1.72918003e-05 
 2.36000000e-01  5.62152559e-06  1.72793494e-05 
 2.37000000e-01  5.63285415e-06  1.72668934e-05 
 2.38000000e-01  5.64418718e-06  1.72544325e-05 
 2.39000000e-01  5.65552466e-06  1.72419666e-05 
 2.40000000e-01  5.66686658e-06  1.72294958e-05 
 2.41000000e-01  5.67821293e-06  1.72170201e-05 
 2.42000000e-01  5.68956369e-06  1.72045394e-05 
 2.43000000e-01  5.70091886e-06  1.71920539e-05 
 2.44000000e-01  5.71227841e-06  1.71795634e-05 
 2.45000000e-01  5.72364234e-06  1.71670681e-05 
 2.46000000e-01  5.73501062e-06  1.71545679e-05 
 2.47000000e-01  5.74638325e-06  1.71420629e-05 
 2.48000000e-01  5.75776023e-06  1.71295530e-05 
 2.49000000e-01  5.76914152e-06  1.71170383e-05 
 2.50000000e-01  5.78052712e-06  1.71045188e-05 
 2.51000000e-01  5.79191701e-06  1.70919945e-05 
 2.52000000e-01  5.80331119e-06  1.70794653e-05 
 2.53000000e-01  5.81470964e-06  1.70669315e-05 
 2.54000000e-01  5.82611234e-06  1.70543928e-05 
 2.55000000e-01  5.83751928e-06  1.70418494e-05 
 2.56000000e-01  5.84893046e-06  1.70293012e-05 
 2.57000000e-01  5.86034585e-06  1.70167483e-05 
 2.58000000e-01  5.87176544e-06  1.70041907e-05 
 2.59000000e-01  5.88318923e-06  1.69916284e-05 
 2.60000000e-01  5.89461719e-06  1.69790614e-05 
 2.61000000e-01  5.90604932e-06  1.69664897e-05 
 2.62000000e-01  5.91748560e-06  1.69539134e-05 
 2.63000000e-01  5.92892601e-06  1.69413324e-05 
 2.64000000e-01  5.94037055e-06  1.69287467e-05 
 2.65000000e-01  5.95181920e-06  1.69161564e-05 
 2.66000000e-01  5.96327196e-06  1.69035615e-05 
 2.67000000e-01  5.97472880e-06  1.68909620e-05 
 2.68000000e-01  5.98618971e-06  1.68783579e-05 
 2.69000000e-01  5.99765468e-06  1.68657492e-05 
 2.70000000e-01  6.00912371e-06  1.68531360e-05 
 2.71000000e-01  6.02059676e-06  1.68405181e-05 
 2.72000000e-01  6.03207384e-06  1.68278958e-05 
 2.73000000e-01  6.04355492e-06  1.68152689e-05 
 2.74000000e-01  6.05504001e-06  1.68026375e-05 
 2.75000000e-01  6.06652907e-06  1.67900015e-05 
 2.76000000e-01  6.07802211e-06  1.67773611e-05 
 2.77000000e-01  6.08951910e-06  1.67647162e-05 
 2.78000000e-01  6.10102003e-06  1.67520668e-05 
 2.79000000e-01  6.11252490e-06  1.67394129e-05 
 2.80000000e-01  6.12403369e-06  1.67267546e-05 
 2.81000000e-01  6.13554638e-06  1.67140918e-05 
 2.82000000e-01  6.14706297e-06  1.67014246e-05 
 2.83000000e-01  6.15858344e-06  1.66887531e-05 
 2.84000000e-01  6.17010777e-06  1.66760771e-05 
 2.85000000e-01  6.18163596e-06  1.66633967e-05 
 2.86000000e-01  6.19316800e-06  1.66507119e-05 
 2.87000000e-01  6.20470386e-06  1.66380228e-05 
 2.88000000e-01  6.21624354e-06  1.66253293e-05 
 2.89000000e-01  6.22778702e-06  1.66126314e-05 
 2.90000000e-01  6.23933430e-06  1.65999292e-05 
 2.91000000e-01  6.25088535e-06  1.65872228e-05 
 2.92000000e-01  6.26244017e-06  1.65745120e-05 
 2.93000000e-01  6.27399874e-06  1.65617969e-05 
 2.94000000e-01  6.28556106e-06  1.65490775e-05 
 2.95000000e-01  6.29712710e-06  1.65363538e-05 
 2.96000000e-01  6.30869686e-06  1.65236259e-05 
 2.97000000e-01  6.32027032e-06  1.65108937e-05 
 2.98000000e-01  6.33184747e-06  1.64981573e-05 
 2.99000000e-01  6.34342830e-06  1.64854167e-05 
 3.00000000e-01  6.35501279e-06  1.64726719e-05 
 3.01000000e-01  6.36660094e-06  1.64599228e-05 
 3.02000000e-01  6.37819273e-06  1.64471696e-05 
 3.03000000e-01  6.38978814e-06  1.64344122e-05 
 3.04000000e-01  6.40138717e-06  1.64216506e-05 
 3.05000000e-01  6.41298980e-06  1.64088848e-05 
 3.06000000e-01  6.42459602e-06  1.63961149e-05 
 3.07000000e-01  6.43620582e-06  1.63833409e-05 
 3.08000000e-01  6.44781918e-06  1.63705628e-05 
 3.09000000e-01  6.45943610e-06  1.63577805e-05 
 3.10000000e-01  6.47105655e-06  1.63449942e-05 
 3.11000000e-01  6.48268053e-06  1.63322038e-05 
 3.12000000e-01  6.49430803e-06  1.63194093e-05 
 3.13000000e-01  6.50593903e-06  1.63066107e-05 
 3.14000000e-01  6.51757352e-06  1.62938081e-05 
 3.15000000e-01  6.52921149e-06  1.62810014e-05 
 3.16000000e-01  6.54085292e-06  1.62681907e-05 
 3.17000000e-01  6.55249780e-06  1.62553760e-05 
 3.18000000e-01  6.56414612e-06  1.62425573e-05 
 3.19000000e-01  6.57579788e-06  1.62297346e-05 
 3.20000000e-01  6.58745304e-06  1.62169079e-05 
 3.21000000e-01  6.59911161e-06  1.62040772e-05 
 3.22000000e-01  6.61077357e-06  1.61912426e-05 
 3.23000000e-01  6.62243891e-06  1.61784040e-05 
 3.24000000e-01  6.63410762e-06  1.61655615e-05 
 3.25000000e-01  6.64577968e-06  1.61527151e-05 
 3.26000000e-01  6.65745507e-06  1.61398648e-05 
 3.27000000e-01  6.66913380e-06  1.61270105e-05 
 3.28000000e-01  6.68081584e-06  1.61141524e-05 
 3.29000000e-01  6.69250120e-06  1.61012904e-05 
 3.30000000e-01  6.70418983e-06  1.60884245e-05 
 3.31000000e-01  6.71588175e-06  1.60755547e-05 
 3.32000000e-01  6.72757694e-06  1.60626812e-05 
 3.33000000e-01  6.73927538e-06  1.60498038e-05 
 3.34000000e-01  6.75097707e-06  1.60369225e-05 
 3.35000000e-01  6.76268198e-06  1.60240375e-05 
 3.36000000e-01  6.77439012e-06  1.60111486e-05 
 3.37000000e-01  6.78610145e-06  1.59982560e-05 
 3.38000000e-01  6.79781599e-06  1.59853596e-05 
 3.39000000e-01  6.80953370e-06  1.59724594e-05 
 3.40000000e-01  6.82125458e-06  1.59595554e-05 
 3.41000000e-01  6.83297862e-06  1.59466478e-05 
 3.42000000e-01  6.84470581e-06  1.59337364e-05 
 3.43000000e-01  6.85643613e-06  1.59208212e-05 
 3.44000000e-01  6.86816956e-06  1.59079024e-05 
 3.45000000e-01  6.87990611e-06  1.58949799e-05 
 3.46000000e-01  6.89164575e-06  1.58820536e-05 
 3.47000000e-01  6.90338848e-06  1.58691237e-05 
 3.48000000e-01  6.91513427e-06  1.58561902e-05 
 3.49000000e-01  6.92688313e-06  1.58432530e-05 
 3.50000000e-01  6.93863503e-06  1.58303121e-05 
 3.51000000e-01  6.95038997e-06  1.58173676e-05 
 3.52000000e-01  6.96214793e-06  1.58044195e-05 
 3.53000000e-01  6.97390890e-06  1.57914678e-05 
 3.54000000e-01  6.98567288e-06  1.57785125e-05 
 3.55000000e-01  6.99743984e-06  1.57655536e-05 
 3.56000000e-01  7.00920977e-06  1.57525911e-05 
 3.57000000e-01  7.02098267e-06  1.57396251e-05 
 3.58000000e-01  7.03275851e-06  1.57266555e-05 
 3.59000000e-01  7.04453730e-06  1.57136824e-05 
 3.60000000e-01  7.05631900e-06  1.57007057e-05 
 3.61000000e-01  7.06810363e-06  1.56877256e-05 
 3.62000000e-01  7.07989115e-06  1.56747419e-05 
 3.63000000e-01  7.09168157e-06  1.56617547e-05 
 3.64000000e-01  7.10347486e-06  1.56487640e-05 
 3.65000000e-01  7.11527102e-06  1.56357699e-05 
 3.66000000e-01  7.12707004e-06  1.56227723e-05 
 3.67000000e-01  7.13887189e-06  1.56097713e-05 
 3.68000000e-01  7.15067658e-06  1.55967668e-05 
 3.69000000e-01  7.16248409e-06  1.55837588e-05 
 3.70000000e-01  7.17429439e-06  1.55707475e-05 
 3.71000000e-01  7.18610749e-06  1.55577327e-05 
 3.72000000e-01  7.19792338e-06  1.55447146e-05 
 3.73000000e-01  7.20974203e-06  1.55316931e-05 
 3.74000000e-01  7.22156345e-06  1.55186682e-05 
 3.75000000e-01  7.23338760e-06  1.55056399e-05 
 3.76000000e-01  7.24521449e-06  1.54926083e-05 
 3.77000000e-01  7.25704411e-06  1.54795733e-05 
 3.78000000e-01  7.26887643e-06  1.54665350e-05 
 3.79000000e-01  7.28071145e-06  1.54534934e-05 
 3.80000000e-01  7.29254916e-06  1.54404485e-05 
 3.81000000e-01  7.30438954e-06  1.54274002e-05 
 3.82000000e-01  7.31623259e-06  1.54143487e-05 
 3.83000000e-01  7.32807828e-06  1.54012939e-05 
 3.84000000e-01  7.33992662e-06  1.53882359e-05 
 3.85000000e-01  7.35177758e-06  1.53751746e-05 
 3.86000000e-01  7.36363115e-06  1.53621100e-05 
 3.87000000e-01  7.37548732e-06  1.53490423e-05 
 3.88000000e-01  7.38734609e-06  1.53359713e-05 
 3.89000000e-01  7.39920744e-06  1.53228970e-05 
 3.90000000e-01  7.41107135e-06  1.53098196e-05 
 3.91000000e-01  7.42293782e-06  1.52967390e-05 
 3.92000000e-01  7.43480683e-06  1.52836553e-05 
 3.93000000e-01  7.44667837e-06  1.52705683e-05 
 3.94000000e-01  7.45855243e-06  1.52574782e-05 
 3.95000000e-01  7.47042899e-06  1.52443850e-05 
 3.96000000e-01  7.48230806e-06  1.52312886e-05 
 3.97000000e-01  7.49418961e-06  1.52181891e-05 
 3.98000000e-01  7.50607363e-06  1.52050865e-05 
 3.99000000e-01  7.51796011e-06  1.51919808e-05 
 4.00000000e-01  7.52984904e-06  1.51788720e-05 
 4.01000000e-01  7.54174040e-06  1.51657601e-05 
 4.02000000e-01  7.55363420e-06  1.51526451e-05 
 4.03000000e-01  7.56553040e-06  1.51395271e-05 
 4.04000000e-01  7.57742900e-06  1.51264060e-05 
 4.05000000e-01  7.58933000e-06  1.51132819e-05 
 4.06000000e-01  7.60123337e-06  1.51001548e-05 
 4.07000000e-01  7.61313910e-06  1.50870247e-05 
 4.08000000e-01  7.62504719e-06  1.50738915e-05 
 4.09000000e-01  7.63695763e-06  1.50607554e-05 
 4.10000000e-01  7.64887039e-06  1.50476163e-05 
 4.11000000e-01  7.66078547e-06  1.50344742e-05 
 4.12000000e-01  7.67270286e-06  1.50213291e-05 
 4.13000000e-01  7.68462254e-06  1.50081811e-05 
 4.14000000e-01  7.69654450e-06  1.49950302e-05 
 4.15000000e-01  7.70846874e-06  1.49818763e-05 
 4.16000000e-01  7.72039524e-06  1.49687195e-05 
 4.17000000e-01  7.73232398e-06  1.49555598e-05 
 4.18000000e-01  7.74425496e-06  1.49423972e-05 
 4.19000000e-01  7.75618817e-06  1.49292317e-05 
 4.20000000e-01  7.76812359e-06  1.49160634e-05 
 4.21000000e-01  7.78006121e-06  1.49028922e-05 
 4.22000000e-01  7.79200102e-06  1.48897181e-05 
 4.23000000e-01  7.80394300e-06  1.48765412e-05 
 4.24000000e-01  7.81588716e-06  1.48633614e-05 
 4.25000000e-01  7.82783346e-06  1.48501788e-05 
 4.26000000e-01  7.83978191e-06  1.48369935e-05 
 4.27000000e-01  7.85173248e-06  1.48238053e-05 
 4.28000000e-01  7.86368519e-06  1.48106143e-05 
 4.29000000e-01  7.87563999e-06  1.47974205e-05 
 4.30000000e-01  7.88759689e-06  1.47842240e-05 
 4.31000000e-01  7.89955588e-06  1.47710247e-05 
 4.32000000e-01  7.91151693e-06  1.47578227e-05 
 4.33000000e-01  7.92348005e-06  1.47446179e-05 
 4.34000000e-01  7.93544522e-06  1.47314104e-05 
 4.35000000e-01  7.94741242e-06  1.47182002e-05 
 4.36000000e-01  7.95938165e-06  1.47049873e-05 
 4.37000000e-01  7.97135289e-06  1.46917717e-05 
 4.38000000e-01  7.98332614e-06  1.46785534e-05 
 4.39000000e-01  7.99530138e-06  1.46653324e-05 
 4.40000000e-01  8.00727859e-06  1.46521088e-05 
 4.41000000e-01  8.01925777e-06  1.46388825e-05 
 4.42000000e-01  8.03123890e-06  1.46256536e-05 
 4.43000000e-01  8.04322199e-06  1.46124220e-05 
 4.44000000e-01  8.05520700e-06  1.45991879e-05 
 4.45000000e-01  8.06719393e-06  1.45859511e-05 
 4.46000000e-01  8.07918277e-06  1.45727117e-05 
 4.47000000e-01  8.09117352e-06  1.45594697e-05 
 4.48000000e-01  8.10316614e-06  1.45462252e-05 
 4.49000000e-01  8.11516064e-06  1.45329781e-05 
 4.50000000e-01  8.12715701e-06  1.45197284e-05 
 4.51000000e-01  8.13915522e-06  1.45064762e-05 
 4.52000000e-01  8.15115527e-06  1.44932214e-05 
 4.53000000e-01  8.16315715e-06  1.44799641e-05 
 4.54000000e-01  8.17516085e-06  1.44667043e-05 
 4.55000000e-01  8.18716635e-06  1.44534420e-05 
 4.56000000e-01  8.19917364e-06  1.44401772e-05 
 4.57000000e-01  8.21118271e-06  1.44269099e-05 
 4.58000000e-01  8.22319356e-06  1.44136402e-05 
 4.59000000e-01  8.23520616e-06  1.44003679e-05 
 4.60000000e-01  8.24722051e-06  1.43870933e-05 
 4.61000000e-01  8.25923659e-06  1.43738162e-05 
 4.62000000e-01  8.27125440e-06  1.43605366e-05 
 4.63000000e-01  8.28327392e-06  1.43472547e-05 
 4.64000000e-01  8.29529513e-06  1.43339703e-05 
 4.65000000e-01  8.30731804e-06  1.43206835e-05 
 4.66000000e-01  8.31934263e-06  1.43073943e-05 
 4.67000000e-01  8.33136888e-06  1.42941028e-05 
 4.68000000e-01  8.34339678e-06  1.42808089e-05 
 4.69000000e-01  8.35542632e-06  1.42675126e-05 
 4.70000000e-01  8.36745750e-06  1.42542140e-05 
 4.71000000e-01  8.37949029e-06  1.42409130e-05 
 4.72000000e-01  8.39152469e-06  1.42276098e-05 
 4.73000000e-01  8.40356069e-06  1.42143042e-05 
 4.74000000e-01  8.41559828e-06  1.42009963e-05 
 4.75000000e-01  8.42763743e-06  1.41876861e-05 
 4.76000000e-01  8.43967814e-06  1.41743736e-05 
 4.77000000e-01  8.45172041e-06  1.41610588e-05 
 4.78000000e-01  8.46376422e-06  1.41477418e-05 
 4.79000000e-01  8.47580955e-06  1.41344225e-05 
 4.80000000e-01  8.48785639e-06  1.41211010e-05 
 4.81000000e-01  8.49990474e-06  1.41077773e-05 
 4.82000000e-01  8.51195458e-06  1.40944513e-05 
 4.83000000e-01  8.52400590e-06  1.40811231e-05 
 4.84000000e-01  8.53605870e-06  1.40677927e-05 
 4.85000000e-01  8.54811294e-06  1.40544601e-05 
 4.86000000e-01  8.56016863e-06  1.40411253e-05 
 4.87000000e-01  8.57222576e-06  1.40277884e-05 
 4.88000000e-01  8.58428431e-06  1.40144493e-05 
 4.89000000e-01  8.59634428e-06  1.40011081e-05 
 4.90000000e-01  8.60840564e-06  1.39877647e-05 
 4.91000000e-01  8.62046839e-06  1.39744192e-05 
 4.92000000e-01  8.63253251e-06  1.39610715e-05 
 4.93000000e-01  8.64459801e-06  1.39477218e-05 
 4.94000000e-01  8.65666485e-06  1.39343700e-05 
 4.95000000e-01  8.66873304e-06  1.39210160e-05 
 4.96000000e-01  8.68080255e-06  1.39076600e-05 
 4.97000000e-01  8.69287339e-06  1.38943019e-05 
 4.98000000e-01  8.70494553e-06  1.38809418e-05 
 4.99000000e-01  8.71701897e-06  1.38675796e-05 
 5.00000000e-01  8.72909370e-06  1.38542154e-05 
 5.01000000e-01  8.74116970e-06  1.38408492e-05 
 5.02000000e-01  8.75324696e-06  1.38274809e-05 
 5.03000000e-01  8.76532546e-06  1.38141107e-05 
 5.04000000e-01  8.77740521e-06  1.38007384e-05 
 5.05000000e-01  8.78948619e-06  1.37873642e-05 
 5.06000000e-01  8.80156837e-06  1.37739879e-05 
