 time            i(V4)           i(V5)          
 1.50000000e-05  3.10508170e-06  2.00496709e-05 
 3.00000000e-05  3.10508170e-06  2.00496709e-05 
 6.00000000e-05  3.10508170e-06  2.00496709e-05 
 1.20000000e-04  3.10508170e-06  2.00496709e-05 
 2.40000000e-04  3.10508170e-06  2.00496709e-05 
 4.80000000e-04  3.10508170e-06  2.00496709e-05 
 9.60000000e-04  3.10508170e-06  2.00496709e-05 
 1.92000000e-03  3.10508170e-06  2.00496709e-05 
 3.84000000e-03  3.10508170e-06  2.00496709e-05 
 6.83998000e-03  3.10508170e-06  2.00496709e-05 
 9.83996000e-03  3.10508170e-06  2.00496709e-05 
 1.28399400e-02  3.10508170e-06  2.00496709e-05 
 1.58399200e-02  3.10508170e-06  2.00496709e-05 
 1.88399000e-02  3.10508170e-06  2.00496709e-05 
 2.00000000e-02  3.10508170e-06  2.00496709e-05 
 2.02999980e-02  2.03248332e-05  7.92877643e-12 
 2.08999940e-02  2.03247191e-05 -1.32747288e-12 
 2.20999860e-02  2.03246714e-05  7.92877641e-12 
 2.44999700e-02  2.03246840e-05 -1.32747288e-12 
 2.74999500e-02  2.03246714e-05  7.92877641e-12 
 3.00000010e-02  2.03246840e-05 -1.32747287e-12 
 3.02999990e-02  3.10508447e-06  2.00496723e-05 
 3.08999950e-02  3.10423161e-06  2.00505319e-05 
 3.20999870e-02  3.10508533e-06  2.00496714e-05 
 3.44999710e-02  3.10507770e-06  2.00496707e-05 
 3.74999510e-02  3.10508559e-06  2.00496712e-05 
 4.00000000e-02  3.10507781e-06  2.00496705e-05 
 4.02999980e-02  2.03248332e-05  7.92877608e-12 
 4.08999940e-02  2.03247191e-05 -1.32747253e-12 
 4.20999860e-02  2.03246714e-05  7.92877607e-12 
 4.44999700e-02  2.03246840e-05 -1.32747253e-12 
 4.74999500e-02  2.03246714e-05  7.92877606e-12 
 5.00000010e-02  2.03246839e-05 -1.32747253e-12 
 5.02999990e-02  3.10508447e-06  2.00496723e-05 
 5.08999950e-02  3.10423161e-06  2.00505319e-05 
 5.20999870e-02  3.10508533e-06  2.00496715e-05 
 5.44999710e-02  3.10507770e-06  2.00496707e-05 
 5.74999510e-02  3.10508559e-06  2.00496712e-05 
 6.00000000e-02  3.10507781e-06  2.00496705e-05 
 6.02999980e-02  2.03248332e-05  7.92877608e-12 
 6.08999940e-02  2.03247191e-05 -1.32747253e-12 
 6.20999860e-02  2.03246714e-05  7.92877607e-12 
 6.44999700e-02  2.03246840e-05 -1.32747253e-12 
 6.74999500e-02  2.03246714e-05  7.92877606e-12 
 7.00000010e-02  2.03246840e-05 -1.32747253e-12 
 7.02999990e-02  3.10508447e-06  2.00496723e-05 
 7.08999950e-02  3.10423161e-06  2.00505319e-05 
 7.20999870e-02  3.10508532e-06  2.00496714e-05 
 7.44999710e-02  3.10507770e-06  2.00496707e-05 
 7.74999510e-02  3.10508559e-06  2.00496712e-05 
 8.00000000e-02  3.10507781e-06  2.00496705e-05 
 8.02999980e-02  2.03248332e-05  7.92877608e-12 
 8.08999940e-02  2.03247191e-05 -1.32747253e-12 
 8.20999860e-02  2.03246714e-05  7.92877606e-12 
 8.44999700e-02  2.03246840e-05 -1.32747253e-12 
 8.74999500e-02  2.03246714e-05  7.92877606e-12 
 9.00000010e-02  2.03246840e-05 -1.32747253e-12 
 9.02999990e-02  3.10508447e-06  2.00496723e-05 
 9.08999950e-02  3.10423161e-06  2.00505319e-05 
 9.20999870e-02  3.10508533e-06  2.00496714e-05 
 9.44999710e-02  3.10507770e-06  2.00496707e-05 
 9.74999510e-02  3.10508559e-06  2.00496712e-05 
 1.00000000e-01  3.10507781e-06  2.00496705e-05 
 1.00299998e-01  2.03248332e-05  7.92877608e-12 
 1.00899994e-01  2.03247191e-05 -1.32747253e-12 
 1.02099986e-01  2.03246714e-05  7.92877607e-12 
 1.04499970e-01  2.03246840e-05 -1.32747253e-12 
 1.07499950e-01  2.03246714e-05  7.92877606e-12 
 1.10000001e-01  2.03246839e-05 -1.32747253e-12 
 1.10299999e-01  3.10508447e-06  2.00496723e-05 
 1.10899995e-01  3.10423161e-06  2.00505319e-05 
 1.12099987e-01  3.10508532e-06  2.00496714e-05 
 1.14499971e-01  3.10507770e-06  2.00496707e-05 
 1.17499951e-01  3.10508559e-06  2.00496712e-05 
 1.20000000e-01  3.10507781e-06  2.00496705e-05 
 1.20299998e-01  2.03248332e-05  7.92877608e-12 
 1.20899994e-01  2.03247191e-05 -1.32747253e-12 
 1.22099986e-01  2.03246714e-05  7.92877607e-12 
 1.24499970e-01  2.03246840e-05 -1.32747253e-12 
 1.27499950e-01  2.03246714e-05  7.92877606e-12 
 1.30000001e-01  2.03246840e-05 -1.32747253e-12 
 1.30299999e-01  3.10508447e-06  2.00496723e-05 
 1.30899995e-01  3.10423161e-06  2.00505319e-05 
 1.32099987e-01  3.10508533e-06  2.00496714e-05 
 1.34499971e-01  3.10507770e-06  2.00496707e-05 
 1.37499951e-01  3.10508559e-06  2.00496712e-05 
 1.40000000e-01  3.10507826e-06  2.00496700e-05 
 1.40299998e-01  2.03248332e-05  7.92877601e-12 
 1.40899994e-01  2.03247191e-05 -1.32747246e-12 
 1.42099986e-01  2.03246714e-05  7.92877600e-12 
 1.44499970e-01  2.03246840e-05 -1.32747246e-12 
 1.47499950e-01  2.03246714e-05  7.92877599e-12 
 1.50000000e-01  2.03246840e-05 -1.32747246e-12 
