 time            i(V4)           i(V5)          
 1.50000000e-05  1.82347879e-09  6.29416111e-06 
 3.00000000e-05  1.82347879e-09  6.29416111e-06 
 6.00000000e-05  1.82347879e-09  6.29416111e-06 
 1.20000000e-04  1.82347880e-09  6.29416111e-06 
 2.40000000e-04  1.82347880e-09  6.29416111e-06 
 4.80000000e-04  1.82347879e-09  6.29416111e-06 
 9.60000000e-04  1.82347880e-09  6.29416111e-06 
 1.92000000e-03  1.82347879e-09  6.29416111e-06 
 3.84000000e-03  1.82347880e-09  6.29416111e-06 
 6.83998000e-03  1.82347880e-09  6.29416111e-06 
 9.83996000e-03  1.82347879e-09  6.29416111e-06 
 1.28399400e-02  1.82347879e-09  6.29416111e-06 
 1.58399200e-02  1.82347879e-09  6.29416111e-06 
 1.88399000e-02  1.82347879e-09  6.29416111e-06 
 2.00000000e-02  1.82347880e-09  6.29416112e-06 
 2.02999980e-02  6.02989626e-06  6.77331186e-12 
 2.08999940e-02  6.02978332e-06 -1.72008301e-13 
 2.20999860e-02  6.02976866e-06  6.77331184e-12 
 2.44999700e-02  6.02977289e-06 -1.72008301e-13 
 2.74999500e-02  6.02976861e-06  6.77331184e-12 
 3.00000010e-02  6.02977289e-06 -1.72008300e-13 
 3.02999990e-02  1.82423845e-09  6.29415898e-06 
 3.08999950e-02  1.82241479e-09  6.29416350e-06 
 3.20999870e-02  1.82453127e-09  6.29415874e-06 
 3.44999710e-02  1.82242633e-09  6.29416349e-06 
 3.74999510e-02  1.82453127e-09  6.29415873e-06 
 4.00000000e-02  1.82242632e-09  6.29416349e-06 
 4.02999980e-02  6.02989627e-06  6.77331174e-12 
 4.08999940e-02  6.02978331e-06 -1.72008185e-13 
 4.20999860e-02  6.02976866e-06  6.77331172e-12 
 4.44999700e-02  6.02977288e-06 -1.72008185e-13 
 4.74999500e-02  6.02976862e-06  6.77331172e-12 
 5.00000010e-02  6.02977288e-06 -1.72008185e-13 
 5.02999990e-02  1.82423845e-09  6.29415898e-06 
 5.08999950e-02  1.82241479e-09  6.29416350e-06 
 5.20999870e-02  1.82453127e-09  6.29415874e-06 
 5.44999710e-02  1.82242632e-09  6.29416349e-06 
 5.74999510e-02  1.82453128e-09  6.29415874e-06 
 6.00000000e-02  1.82242632e-09  6.29416349e-06 
 6.02999980e-02  6.02989627e-06  6.77331174e-12 
 6.08999940e-02  6.02978331e-06 -1.72008185e-13 
 6.20999860e-02  6.02976866e-06  6.77331172e-12 
 6.44999700e-02  6.02977289e-06 -1.72008185e-13 
 6.74999500e-02  6.02976862e-06  6.77331172e-12 
 7.00000010e-02  6.02977288e-06 -1.72008184e-13 
 7.02999990e-02  1.82423845e-09  6.29415898e-06 
 7.08999950e-02  1.82241479e-09  6.29416350e-06 
 7.20999870e-02  1.82453127e-09  6.29415874e-06 
 7.44999710e-02  1.82242632e-09  6.29416349e-06 
 7.74999510e-02  1.82453126e-09  6.29415873e-06 
 8.00000000e-02  1.82242632e-09  6.29416349e-06 
 8.02999980e-02  6.02989627e-06  6.77331174e-12 
 8.08999940e-02  6.02978332e-06 -1.72008185e-13 
 8.20999860e-02  6.02976866e-06  6.77331172e-12 
 8.44999700e-02  6.02977289e-06 -1.72008185e-13 
 8.74999500e-02  6.02976862e-06  6.77331172e-12 
 9.00000010e-02  6.02977288e-06 -1.72008184e-13 
 9.02999990e-02  1.82423845e-09  6.29415898e-06 
 9.08999950e-02  1.82241479e-09  6.29416350e-06 
 9.20999870e-02  1.82453127e-09  6.29415874e-06 
 9.44999710e-02  1.82242633e-09  6.29416349e-06 
 9.74999510e-02  1.82453126e-09  6.29415873e-06 
 1.00000000e-01  1.82242632e-09  6.29416349e-06 
 1.00299998e-01  6.02989626e-06  6.77331174e-12 
 1.00899994e-01  6.02978331e-06 -1.72008185e-13 
 1.02099986e-01  6.02976866e-06  6.77331172e-12 
 1.04499970e-01  6.02977288e-06 -1.72008185e-13 
 1.07499950e-01  6.02976862e-06  6.77331172e-12 
 1.10000001e-01  6.02977288e-06 -1.72008184e-13 
 1.10299999e-01  1.82423845e-09  6.29415898e-06 
 1.10899995e-01  1.82241479e-09  6.29416350e-06 
 1.12099987e-01  1.82453127e-09  6.29415874e-06 
 1.14499971e-01  1.82242633e-09  6.29416349e-06 
 1.17499951e-01  1.82453126e-09  6.29415873e-06 
 1.20000000e-01  1.82242632e-09  6.29416349e-06 
 1.20299998e-01  6.02989627e-06  6.77331174e-12 
 1.20899994e-01  6.02978332e-06 -1.72008185e-13 
 1.22099986e-01  6.02976866e-06  6.77331172e-12 
 1.24499970e-01  6.02977288e-06 -1.72008185e-13 
 1.27499950e-01  6.02976862e-06  6.77331172e-12 
 1.30000001e-01  6.02977288e-06 -1.72008184e-13 
 1.30299999e-01  1.82423845e-09  6.29415898e-06 
 1.30899995e-01  1.82241479e-09  6.29416350e-06 
 1.32099987e-01  1.82453127e-09  6.29415874e-06 
 1.34499971e-01  1.82242632e-09  6.29416349e-06 
 1.37499951e-01  1.82453127e-09  6.29415874e-06 
 1.40000000e-01  1.82242835e-09  6.29416348e-06 
 1.40299998e-01  6.02989627e-06  6.77331171e-12 
 1.40899994e-01  6.02978331e-06 -1.72008150e-13 
 1.42099986e-01  6.02976866e-06  6.77331169e-12 
 1.44499970e-01  6.02977289e-06 -1.72008151e-13 
 1.47499950e-01  6.02976862e-06  6.77331169e-12 
 1.50000000e-01  6.02977288e-06 -1.72008150e-13 
