 v-sweep         i(V4)           i(V5)          
 1.00000000e-01  1.92724804e-05  4.12584324e-05 
 1.01000000e-01  1.92847899e-05  4.12337459e-05 
 1.02000000e-01  1.92970887e-05  4.12090442e-05 
 1.03000000e-01  1.93093847e-05  4.11843386e-05 
 1.04000000e-01  1.93216754e-05  4.11596254e-05 
 1.05000000e-01  1.93339606e-05  4.11349046e-05 
 1.06000000e-01  1.93462405e-05  4.11101763e-05 
 1.07000000e-01  1.93585149e-05  4.10854404e-05 
 1.08000000e-01  1.93707839e-05  4.10606969e-05 
 1.09000000e-01  1.93830476e-05  4.10359459e-05 
 1.10000000e-01  1.93953057e-05  4.10111874e-05 
 1.11000000e-01  1.94075585e-05  4.09864213e-05 
 1.12000000e-01  1.94198058e-05  4.09616478e-05 
 1.13000000e-01  1.94320477e-05  4.09368668e-05 
 1.14000000e-01  1.94442842e-05  4.09120783e-05 
 1.15000000e-01  1.94565152e-05  4.08872823e-05 
 1.16000000e-01  1.94687408e-05  4.08624789e-05 
 1.17000000e-01  1.94809609e-05  4.08376681e-05 
 1.18000000e-01  1.94931756e-05  4.08128499e-05 
 1.19000000e-01  1.95053848e-05  4.07880242e-05 
 1.20000000e-01  1.95175886e-05  4.07631912e-05 
 1.21000000e-01  1.95297869e-05  4.07383508e-05 
 1.22000000e-01  1.95419798e-05  4.07135031e-05 
 1.23000000e-01  1.95541672e-05  4.06886480e-05 
 1.24000000e-01  1.95663491e-05  4.06637856e-05 
 1.25000000e-01  1.95785256e-05  4.06389158e-05 
 1.26000000e-01  1.95906966e-05  4.06140388e-05 
 1.27000000e-01  1.96028621e-05  4.05891545e-05 
 1.28000000e-01  1.96150221e-05  4.05642630e-05 
 1.29000000e-01  1.96271767e-05  4.05393641e-05 
 1.30000000e-01  1.96393257e-05  4.05144581e-05 
 1.31000000e-01  1.96514693e-05  4.04895448e-05 
 1.32000000e-01  1.96636074e-05  4.04646243e-05 
 1.33000000e-01  1.96757400e-05  4.04396967e-05 
 1.34000000e-01  1.96878671e-05  4.04147618e-05 
 1.35000000e-01  1.96999888e-05  4.03898198e-05 
 1.36000000e-01  1.97121049e-05  4.03648706e-05 
 1.37000000e-01  1.97242155e-05  4.03399143e-05 
 1.38000000e-01  1.97363206e-05  4.03149509e-05 
 1.39000000e-01  1.97484202e-05  4.02899804e-05 
 1.40000000e-01  1.97605143e-05  4.02650028e-05 
 1.41000000e-01  1.97726029e-05  4.02400182e-05 
 1.42000000e-01  1.97846860e-05  4.02150264e-05 
 1.43000000e-01  1.97967636e-05  4.01900277e-05 
 1.44000000e-01  1.98088356e-05  4.01650219e-05 
 1.45000000e-01  1.98209022e-05  4.01400091e-05 
 1.46000000e-01  1.98329632e-05  4.01149894e-05 
 1.47000000e-01  1.98450187e-05  4.00899626e-05 
 1.48000000e-01  1.98570687e-05  4.00649289e-05 
 1.49000000e-01  1.98691131e-05  4.00398882e-05 
 1.50000000e-01  1.98811521e-05  4.00148407e-05 
 1.51000000e-01  1.98931855e-05  3.99897862e-05 
 1.52000000e-01  1.99052133e-05  3.99647248e-05 
 1.53000000e-01  1.99172357e-05  3.99396565e-05 
 1.54000000e-01  1.99292525e-05  3.99145814e-05 
 1.55000000e-01  1.99412637e-05  3.98894994e-05 
 1.56000000e-01  1.99532695e-05  3.98644106e-05 
 1.57000000e-01  1.99652697e-05  3.98393150e-05 
 1.58000000e-01  1.99772643e-05  3.98142125e-05 
 1.59000000e-01  1.99892535e-05  3.97891033e-05 
 1.60000000e-01  2.00012370e-05  3.97639874e-05 
 1.61000000e-01  2.00132151e-05  3.97388646e-05 
 1.62000000e-01  2.00251875e-05  3.97137352e-05 
 1.63000000e-01  2.00371545e-05  3.96885990e-05 
 1.64000000e-01  2.00491159e-05  3.96634561e-05 
 1.65000000e-01  2.00610717e-05  3.96383066e-05 
 1.66000000e-01  2.00730220e-05  3.96131504e-05 
 1.67000000e-01  2.00849668e-05  3.95879875e-05 
 1.68000000e-01  2.00969060e-05  3.95628180e-05 
 1.69000000e-01  2.01088396e-05  3.95376418e-05 
 1.70000000e-01  2.01207677e-05  3.95124591e-05 
 1.71000000e-01  2.01326903e-05  3.94872698e-05 
 1.72000000e-01  2.01446073e-05  3.94620739e-05 
 1.73000000e-01  2.01565187e-05  3.94368715e-05 
 1.74000000e-01  2.01684246e-05  3.94116625e-05 
 1.75000000e-01  2.01803249e-05  3.93864471e-05 
 1.76000000e-01  2.01922197e-05  3.93612251e-05 
 1.77000000e-01  2.02041089e-05  3.93359966e-05 
 1.78000000e-01  2.02159925e-05  3.93107617e-05 
 1.79000000e-01  2.02278706e-05  3.92855203e-05 
 1.80000000e-01  2.02397431e-05  3.92602725e-05 
 1.81000000e-01  2.02516101e-05  3.92350183e-05 
 1.82000000e-01  2.02634715e-05  3.92097577e-05 
 1.83000000e-01  2.02753273e-05  3.91844907e-05 
 1.84000000e-01  2.02871776e-05  3.91592173e-05 
 1.85000000e-01  2.02990223e-05  3.91339376e-05 
 1.86000000e-01  2.03108614e-05  3.91086516e-05 
 1.87000000e-01  2.03226950e-05  3.90833593e-05 
 1.88000000e-01  2.03345231e-05  3.90580606e-05 
 1.89000000e-01  2.03463455e-05  3.90327557e-05 
 1.90000000e-01  2.03581624e-05  3.90074445e-05 
 1.91000000e-01  2.03699737e-05  3.89821271e-05 
 1.92000000e-01  2.03817795e-05  3.89568035e-05 
 1.93000000e-01  2.03935797e-05  3.89314737e-05 
 1.94000000e-01  2.04053743e-05  3.89061376e-05 
 1.95000000e-01  2.04171634e-05  3.88807954e-05 
 1.96000000e-01  2.04289468e-05  3.88554471e-05 
 1.97000000e-01  2.04407248e-05  3.88300926e-05 
 1.98000000e-01  2.04524971e-05  3.88047320e-05 
 1.99000000e-01  2.04642639e-05  3.87793652e-05 
 2.00000000e-01  2.04760252e-05  3.87539925e-05 
 2.01000000e-01  2.04877808e-05  3.87286136e-05 
 2.02000000e-01  2.04995309e-05  3.87032287e-05 
 2.03000000e-01  2.05112754e-05  3.86778377e-05 
 2.04000000e-01  2.05230144e-05  3.86524408e-05 
 2.05000000e-01  2.05347478e-05  3.86270378e-05 
 2.06000000e-01  2.05464756e-05  3.86016289e-05 
 2.07000000e-01  2.05581979e-05  3.85762140e-05 
 2.08000000e-01  2.05699146e-05  3.85507932e-05 
 2.09000000e-01  2.05816257e-05  3.85253665e-05 
 2.10000000e-01  2.05933313e-05  3.84999338e-05 
 2.11000000e-01  2.06050313e-05  3.84744953e-05 
 2.12000000e-01  2.06167258e-05  3.84490509e-05 
 2.13000000e-01  2.06284146e-05  3.84236006e-05 
 2.14000000e-01  2.06400979e-05  3.83981445e-05 
 2.15000000e-01  2.06517757e-05  3.83726826e-05 
 2.16000000e-01  2.06634479e-05  3.83472149e-05 
 2.17000000e-01  2.06751145e-05  3.83217414e-05 
 2.18000000e-01  2.06867756e-05  3.82962622e-05 
 2.19000000e-01  2.06984311e-05  3.82707772e-05 
 2.20000000e-01  2.07100810e-05  3.82452865e-05 
 2.21000000e-01  2.07217254e-05  3.82197901e-05 
 2.22000000e-01  2.07333642e-05  3.81942880e-05 
 2.23000000e-01  2.07449975e-05  3.81687802e-05 
 2.24000000e-01  2.07566252e-05  3.81432667e-05 
 2.25000000e-01  2.07682474e-05  3.81177477e-05 
 2.26000000e-01  2.07798640e-05  3.80922230e-05 
 2.27000000e-01  2.07914750e-05  3.80666927e-05 
 2.28000000e-01  2.08030805e-05  3.80411569e-05 
 2.29000000e-01  2.08146804e-05  3.80156154e-05 
 2.30000000e-01  2.08262748e-05  3.79900685e-05 
 2.31000000e-01  2.08378636e-05  3.79645160e-05 
 2.32000000e-01  2.08494469e-05  3.79389580e-05 
 2.33000000e-01  2.08610246e-05  3.79133945e-05 
 2.34000000e-01  2.08725968e-05  3.78878256e-05 
 2.35000000e-01  2.08841634e-05  3.78622512e-05 
 2.36000000e-01  2.08957244e-05  3.78366714e-05 
 2.37000000e-01  2.09072800e-05  3.78110861e-05 
 2.38000000e-01  2.09188299e-05  3.77854955e-05 
 2.39000000e-01  2.09303744e-05  3.77598995e-05 
 2.40000000e-01  2.09419132e-05  3.77342981e-05 
 2.41000000e-01  2.09534466e-05  3.77086914e-05 
 2.42000000e-01  2.09649744e-05  3.76830794e-05 
 2.43000000e-01  2.09764966e-05  3.76574620e-05 
 2.44000000e-01  2.09880133e-05  3.76318394e-05 
 2.45000000e-01  2.09995245e-05  3.76062115e-05 
 2.46000000e-01  2.10110301e-05  3.75805784e-05 
 2.47000000e-01  2.10225302e-05  3.75549401e-05 
 2.48000000e-01  2.10340248e-05  3.75292965e-05 
 2.49000000e-01  2.10455138e-05  3.75036477e-05 
 2.50000000e-01  2.10569973e-05  3.74779938e-05 
 2.51000000e-01  2.10684753e-05  3.74523347e-05 
 2.52000000e-01  2.10799477e-05  3.74266705e-05 
 2.53000000e-01  2.10914146e-05  3.74010011e-05 
 2.54000000e-01  2.11028760e-05  3.73753267e-05 
 2.55000000e-01  2.11143318e-05  3.73496472e-05 
 2.56000000e-01  2.11257821e-05  3.73239626e-05 
 2.57000000e-01  2.11372269e-05  3.72982730e-05 
 2.58000000e-01  2.11486662e-05  3.72725784e-05 
 2.59000000e-01  2.11600999e-05  3.72468787e-05 
 2.60000000e-01  2.11715281e-05  3.72211741e-05 
 2.61000000e-01  2.11829508e-05  3.71954645e-05 
 2.62000000e-01  2.11943680e-05  3.71697499e-05 
 2.63000000e-01  2.12057797e-05  3.71440305e-05 
 2.64000000e-01  2.12171858e-05  3.71183061e-05 
 2.65000000e-01  2.12285865e-05  3.70925768e-05 
 2.66000000e-01  2.12399816e-05  3.70668426e-05 
 2.67000000e-01  2.12513712e-05  3.70411036e-05 
 2.68000000e-01  2.12627553e-05  3.70153598e-05 
 2.69000000e-01  2.12741339e-05  3.69896111e-05 
 2.70000000e-01  2.12855070e-05  3.69638577e-05 
 2.71000000e-01  2.12968745e-05  3.69380994e-05 
 2.72000000e-01  2.13082366e-05  3.69123364e-05 
 2.73000000e-01  2.13195932e-05  3.68865687e-05 
 2.74000000e-01  2.13309443e-05  3.68607962e-05 
 2.75000000e-01  2.13422898e-05  3.68350191e-05 
 2.76000000e-01  2.13536299e-05  3.68092372e-05 
 2.77000000e-01  2.13649645e-05  3.67834507e-05 
 2.78000000e-01  2.13762936e-05  3.67576595e-05 
 2.79000000e-01  2.13876172e-05  3.67318637e-05 
 2.80000000e-01  2.13989353e-05  3.67060633e-05 
 2.81000000e-01  2.14102479e-05  3.66802583e-05 
 2.82000000e-01  2.14215550e-05  3.66544488e-05 
 2.83000000e-01  2.14328566e-05  3.66286346e-05 
 2.84000000e-01  2.14441528e-05  3.66028160e-05 
 2.85000000e-01  2.14554435e-05  3.65769928e-05 
 2.86000000e-01  2.14667286e-05  3.65511652e-05 
 2.87000000e-01  2.14780083e-05  3.65253330e-05 
 2.88000000e-01  2.14892826e-05  3.64994964e-05 
 2.89000000e-01  2.15005513e-05  3.64736554e-05 
 2.90000000e-01  2.15118146e-05  3.64478099e-05 
 2.91000000e-01  2.15230724e-05  3.64219600e-05 
 2.92000000e-01  2.15343248e-05  3.63961058e-05 
 2.93000000e-01  2.15455716e-05  3.63702472e-05 
 2.94000000e-01  2.15568130e-05  3.63443842e-05 
 2.95000000e-01  2.15680490e-05  3.63185170e-05 
 2.96000000e-01  2.15792795e-05  3.62926454e-05 
 2.97000000e-01  2.15905045e-05  3.62667695e-05 
 2.98000000e-01  2.16017240e-05  3.62408894e-05 
 2.99000000e-01  2.16129381e-05  3.62150050e-05 
 3.00000000e-01  2.16241468e-05  3.61891163e-05 
 3.01000000e-01  2.16353499e-05  3.61632235e-05 
 3.02000000e-01  2.16465477e-05  3.61373265e-05 
 3.03000000e-01  2.16577400e-05  3.61114253e-05 
 3.04000000e-01  2.16689268e-05  3.60855199e-05 
 3.05000000e-01  2.16801082e-05  3.60596104e-05 
 3.06000000e-01  2.16912841e-05  3.60336968e-05 
 3.07000000e-01  2.17024546e-05  3.60077791e-05 
 3.08000000e-01  2.17136197e-05  3.59818573e-05 
 3.09000000e-01  2.17247793e-05  3.59559314e-05 
 3.10000000e-01  2.17359335e-05  3.59300015e-05 
 3.11000000e-01  2.17470823e-05  3.59040676e-05 
 3.12000000e-01  2.17582256e-05  3.58781297e-05 
 3.13000000e-01  2.17693635e-05  3.58521878e-05 
 3.14000000e-01  2.17804959e-05  3.58262419e-05 
 3.15000000e-01  2.17916230e-05  3.58002921e-05 
 3.16000000e-01  2.18027446e-05  3.57743384e-05 
 3.17000000e-01  2.18138608e-05  3.57483807e-05 
 3.18000000e-01  2.18249715e-05  3.57224192e-05 
 3.19000000e-01  2.18360769e-05  3.56964538e-05 
 3.20000000e-01  2.18471768e-05  3.56704845e-05 
 3.21000000e-01  2.18582713e-05  3.56445114e-05 
 3.22000000e-01  2.18693604e-05  3.56185345e-05 
 3.23000000e-01  2.18804441e-05  3.55925538e-05 
 3.24000000e-01  2.18915224e-05  3.55665693e-05 
 3.25000000e-01  2.19025953e-05  3.55405811e-05 
 3.26000000e-01  2.19136627e-05  3.55145891e-05 
 3.27000000e-01  2.19247248e-05  3.54885934e-05 
 3.28000000e-01  2.19357815e-05  3.54625940e-05 
 3.29000000e-01  2.19468328e-05  3.54365909e-05 
 3.30000000e-01  2.19578786e-05  3.54105841e-05 
 3.31000000e-01  2.19689191e-05  3.53845738e-05 
 3.32000000e-01  2.19799542e-05  3.53585598e-05 
 3.33000000e-01  2.19909839e-05  3.53325421e-05 
 3.34000000e-01  2.20020082e-05  3.53065209e-05 
 3.35000000e-01  2.20130272e-05  3.52804962e-05 
 3.36000000e-01  2.20240407e-05  3.52544678e-05 
 3.37000000e-01  2.20350489e-05  3.52284360e-05 
 3.38000000e-01  2.20460517e-05  3.52024006e-05 
 3.39000000e-01  2.20570491e-05  3.51763618e-05 
 3.40000000e-01  2.20680411e-05  3.51503195e-05 
 3.41000000e-01  2.20790278e-05  3.51242737e-05 
 3.42000000e-01  2.20900091e-05  3.50982245e-05 
 3.43000000e-01  2.21009850e-05  3.50721718e-05 
 3.44000000e-01  2.21119556e-05  3.50461158e-05 
 3.45000000e-01  2.21229208e-05  3.50200564e-05 
 3.46000000e-01  2.21338806e-05  3.49939936e-05 
 3.47000000e-01  2.21448351e-05  3.49679275e-05 
 3.48000000e-01  2.21557842e-05  3.49418581e-05 
 3.49000000e-01  2.21667280e-05  3.49157854e-05 
 3.50000000e-01  2.21776664e-05  3.48897094e-05 
 3.51000000e-01  2.21885994e-05  3.48636301e-05 
 3.52000000e-01  2.21995271e-05  3.48375476e-05 
 3.53000000e-01  2.22104495e-05  3.48114618e-05 
 3.54000000e-01  2.22213665e-05  3.47853729e-05 
 3.55000000e-01  2.22322782e-05  3.47592807e-05 
 3.56000000e-01  2.22431846e-05  3.47331854e-05 
 3.57000000e-01  2.22540856e-05  3.47070869e-05 
 3.58000000e-01  2.22649812e-05  3.46809853e-05 
 3.59000000e-01  2.22758716e-05  3.46548806e-05 
 3.60000000e-01  2.22867566e-05  3.46287728e-05 
 3.61000000e-01  2.22976363e-05  3.46026619e-05 
 3.62000000e-01  2.23085106e-05  3.45765479e-05 
 3.63000000e-01  2.23193797e-05  3.45504309e-05 
 3.64000000e-01  2.23302434e-05  3.45243109e-05 
 3.65000000e-01  2.23411018e-05  3.44981879e-05 
 3.66000000e-01  2.23519548e-05  3.44720619e-05 
 3.67000000e-01  2.23628026e-05  3.44459330e-05 
 3.68000000e-01  2.23736450e-05  3.44198011e-05 
 3.69000000e-01  2.23844822e-05  3.43936662e-05 
 3.70000000e-01  2.23953140e-05  3.43675285e-05 
 3.71000000e-01  2.24061405e-05  3.43413879e-05 
 3.72000000e-01  2.24169617e-05  3.43152444e-05 
 3.73000000e-01  2.24277777e-05  3.42890981e-05 
 3.74000000e-01  2.24385883e-05  3.42629489e-05 
 3.75000000e-01  2.24493936e-05  3.42367969e-05 
 3.76000000e-01  2.24601936e-05  3.42106421e-05 
 3.77000000e-01  2.24709884e-05  3.41844846e-05 
 3.78000000e-01  2.24817778e-05  3.41583242e-05 
 3.79000000e-01  2.24925620e-05  3.41321612e-05 
 3.80000000e-01  2.25033409e-05  3.41059954e-05 
 3.81000000e-01  2.25141145e-05  3.40798269e-05 
 3.82000000e-01  2.25248828e-05  3.40536558e-05 
 3.83000000e-01  2.25356458e-05  3.40274820e-05 
 3.84000000e-01  2.25464036e-05  3.40013055e-05 
 3.85000000e-01  2.25571560e-05  3.39751264e-05 
 3.86000000e-01  2.25679033e-05  3.39489447e-05 
 3.87000000e-01  2.25786452e-05  3.39227604e-05 
 3.88000000e-01  2.25893819e-05  3.38965736e-05 
 3.89000000e-01  2.26001133e-05  3.38703842e-05 
 3.90000000e-01  2.26108394e-05  3.38441922e-05 
 3.91000000e-01  2.26215603e-05  3.38179978e-05 
 3.92000000e-01  2.26322760e-05  3.37918008e-05 
 3.93000000e-01  2.26429863e-05  3.37656014e-05 
 3.94000000e-01  2.26536915e-05  3.37393995e-05 
 3.95000000e-01  2.26643913e-05  3.37131952e-05 
 3.96000000e-01  2.26750860e-05  3.36869884e-05 
 3.97000000e-01  2.26857753e-05  3.36607793e-05 
 3.98000000e-01  2.26964595e-05  3.36345677e-05 
 3.99000000e-01  2.27071384e-05  3.36083538e-05 
 4.00000000e-01  2.27178120e-05  3.35821376e-05 
 4.01000000e-01  2.27284804e-05  3.35559190e-05 
 4.02000000e-01  2.27391436e-05  3.35296981e-05 
 4.03000000e-01  2.27498016e-05  3.35034750e-05 
 4.04000000e-01  2.27604543e-05  3.34772495e-05 
 4.05000000e-01  2.27711018e-05  3.34510218e-05 
 4.06000000e-01  2.27817441e-05  3.34247919e-05 
 4.07000000e-01  2.27923811e-05  3.33985597e-05 
 4.08000000e-01  2.28030129e-05  3.33723254e-05 
 4.09000000e-01  2.28136395e-05  3.33460889e-05 
 4.10000000e-01  2.28242609e-05  3.33198502e-05 
 4.11000000e-01  2.28348771e-05  3.32936093e-05 
 4.12000000e-01  2.28454881e-05  3.32673664e-05 
 4.13000000e-01  2.28560938e-05  3.32411213e-05 
 4.14000000e-01  2.28666944e-05  3.32148742e-05 
 4.15000000e-01  2.28772897e-05  3.31886249e-05 
 4.16000000e-01  2.28878798e-05  3.31623737e-05 
 4.17000000e-01  2.28984648e-05  3.31361204e-05 
 4.18000000e-01  2.29090445e-05  3.31098651e-05 
 4.19000000e-01  2.29196191e-05  3.30836078e-05 
 4.20000000e-01  2.29301884e-05  3.30573485e-05 
 4.21000000e-01  2.29407526e-05  3.30310872e-05 
 4.22000000e-01  2.29513115e-05  3.30048240e-05 
 4.23000000e-01  2.29618653e-05  3.29785589e-05 
 4.24000000e-01  2.29724139e-05  3.29522919e-05 
 4.25000000e-01  2.29829573e-05  3.29260230e-05 
 4.26000000e-01  2.29934956e-05  3.28997523e-05 
 4.27000000e-01  2.30040286e-05  3.28734797e-05 
 4.28000000e-01  2.30145565e-05  3.28472052e-05 
 4.29000000e-01  2.30250792e-05  3.28209290e-05 
 4.30000000e-01  2.30355968e-05  3.27946510e-05 
 4.31000000e-01  2.30461091e-05  3.27683711e-05 
 4.32000000e-01  2.30566163e-05  3.27420896e-05 
 4.33000000e-01  2.30671184e-05  3.27158063e-05 
 4.34000000e-01  2.30776153e-05  3.26895212e-05 
 4.35000000e-01  2.30881070e-05  3.26632345e-05 
 4.36000000e-01  2.30985935e-05  3.26369461e-05 
 4.37000000e-01  2.31090749e-05  3.26106560e-05 
 4.38000000e-01  2.31195512e-05  3.25843643e-05 
 4.39000000e-01  2.31300223e-05  3.25580710e-05 
 4.40000000e-01  2.31404883e-05  3.25317760e-05 
 4.41000000e-01  2.31509491e-05  3.25054794e-05 
 4.42000000e-01  2.31614047e-05  3.24791813e-05 
 4.43000000e-01  2.31718553e-05  3.24528816e-05 
 4.44000000e-01  2.31823006e-05  3.24265804e-05 
 4.45000000e-01  2.31927409e-05  3.24002777e-05 
 4.46000000e-01  2.32031760e-05  3.23739735e-05 
 4.47000000e-01  2.32136060e-05  3.23476677e-05 
 4.48000000e-01  2.32240308e-05  3.23213606e-05 
 4.49000000e-01  2.32344506e-05  3.22950519e-05 
 4.50000000e-01  2.32448651e-05  3.22687419e-05 
 4.51000000e-01  2.32552746e-05  3.22424304e-05 
 4.52000000e-01  2.32656790e-05  3.22161176e-05 
 4.53000000e-01  2.32760782e-05  3.21898033e-05 
 4.54000000e-01  2.32864723e-05  3.21634878e-05 
 4.55000000e-01  2.32968613e-05  3.21371708e-05 
 4.56000000e-01  2.33072452e-05  3.21108526e-05 
 4.57000000e-01  2.33176240e-05  3.20845331e-05 
 4.58000000e-01  2.33279976e-05  3.20582122e-05 
 4.59000000e-01  2.33383662e-05  3.20318902e-05 
 4.60000000e-01  2.33487297e-05  3.20055668e-05 
 4.61000000e-01  2.33590880e-05  3.19792423e-05 
 4.62000000e-01  2.33694413e-05  3.19529165e-05 
 4.63000000e-01  2.33797894e-05  3.19265895e-05 
 4.64000000e-01  2.33901325e-05  3.19002614e-05 
 4.65000000e-01  2.34004705e-05  3.18739321e-05 
 4.66000000e-01  2.34108033e-05  3.18476017e-05 
 4.67000000e-01  2.34211311e-05  3.18212701e-05 
 4.68000000e-01  2.34314538e-05  3.17949375e-05 
 4.69000000e-01  2.34417715e-05  3.17686037e-05 
 4.70000000e-01  2.34520840e-05  3.17422689e-05 
 4.71000000e-01  2.34623915e-05  3.17159331e-05 
 4.72000000e-01  2.34726938e-05  3.16895962e-05 
 4.73000000e-01  2.34829911e-05  3.16632583e-05 
 4.74000000e-01  2.34932834e-05  3.16369194e-05 
 4.75000000e-01  2.35035705e-05  3.16105795e-05 
 4.76000000e-01  2.35138526e-05  3.15842387e-05 
 4.77000000e-01  2.35241296e-05  3.15578969e-05 
 4.78000000e-01  2.35344016e-05  3.15315542e-05 
 4.79000000e-01  2.35446685e-05  3.15052107e-05 
 4.80000000e-01  2.35549303e-05  3.14788662e-05 
 4.81000000e-01  2.35651871e-05  3.14525208e-05 
 4.82000000e-01  2.35754388e-05  3.14261746e-05 
 4.83000000e-01  2.35856855e-05  3.13998276e-05 
 4.84000000e-01  2.35959271e-05  3.13734798e-05 
 4.85000000e-01  2.36061637e-05  3.13471311e-05 
 4.86000000e-01  2.36163952e-05  3.13207817e-05 
 4.87000000e-01  2.36266216e-05  3.12944315e-05 
 4.88000000e-01  2.36368431e-05  3.12680806e-05 
 4.89000000e-01  2.36470594e-05  3.12417289e-05 
 4.90000000e-01  2.36572708e-05  3.12153766e-05 
 4.91000000e-01  2.36674771e-05  3.11890235e-05 
 4.92000000e-01  2.36776784e-05  3.11626698e-05 
 4.93000000e-01  2.36878746e-05  3.11363154e-05 
 4.94000000e-01  2.36980658e-05  3.11099604e-05 
 4.95000000e-01  2.37082520e-05  3.10836048e-05 
 4.96000000e-01  2.37184331e-05  3.10572485e-05 
 4.97000000e-01  2.37286092e-05  3.10308917e-05 
 4.98000000e-01  2.37387803e-05  3.10045343e-05 
 4.99000000e-01  2.37489464e-05  3.09781764e-05 
 5.00000000e-01  2.37591075e-05  3.09518179e-05 
 5.01000000e-01  2.37692635e-05  3.09254589e-05 
 5.02000000e-01  2.37794145e-05  3.08990995e-05 
 5.03000000e-01  2.37895605e-05  3.08727395e-05 
 5.04000000e-01  2.37997016e-05  3.08463791e-05 
 5.05000000e-01  2.38098375e-05  3.08200182e-05 
 5.06000000e-01  2.38199685e-05  3.07936570e-05 
