 v-sweep         i(V4)           i(V5)          
 1.00000000e-01  7.36861837e-09  5.47540056e-06 
 1.01000000e-01  7.53651531e-09  5.47501035e-06 
 1.02000000e-01  7.71174024e-09  5.47461256e-06 
 1.03000000e-01  7.88890776e-09  5.47421276e-06 
 1.04000000e-01  8.06991300e-09  5.47380900e-06 
 1.05000000e-01  8.25483267e-09  5.47340121e-06 
 1.06000000e-01  8.44374473e-09  5.47298930e-06 
 1.07000000e-01  8.63672849e-09  5.47257319e-06 
 1.08000000e-01  8.83386469e-09  5.47215281e-06 
 1.09000000e-01  9.03523541e-09  5.47172808e-06 
 1.10000000e-01  9.24092412e-09  5.47129891e-06 
 1.11000000e-01  9.45101578e-09  5.47086522e-06 
 1.12000000e-01  9.66559661e-09  5.47042692e-06 
 1.13000000e-01  9.88475447e-09  5.46998392e-06 
 1.14000000e-01  1.01085786e-08  5.46953615e-06 
 1.15000000e-01  1.03371596e-08  5.46908350e-06 
 1.16000000e-01  1.05705898e-08  5.46862589e-06 
 1.17000000e-01  1.08089628e-08  5.46816322e-06 
 1.18000000e-01  1.10523737e-08  5.46769540e-06 
 1.19000000e-01  1.13009195e-08  5.46722234e-06 
 1.20000000e-01  1.15546982e-08  5.46674393e-06 
 1.21000000e-01  1.18138099e-08  5.46626008e-06 
 1.22000000e-01  1.20783556e-08  5.46577069e-06 
 1.23000000e-01  1.23484385e-08  5.46527565e-06 
 1.24000000e-01  1.26241631e-08  5.46477487e-06 
 1.25000000e-01  1.29056354e-08  5.46426823e-06 
 1.26000000e-01  1.31929632e-08  5.46375564e-06 
 1.27000000e-01  1.34862558e-08  5.46323697e-06 
 1.28000000e-01  1.37856241e-08  5.46271213e-06 
 1.29000000e-01  1.40911808e-08  5.46218101e-06 
 1.30000000e-01  1.44030399e-08  5.46164348e-06 
 1.31000000e-01  1.47213173e-08  5.46109944e-06 
 1.32000000e-01  1.50461304e-08  5.46054876e-06 
 1.33000000e-01  1.53775983e-08  5.45999133e-06 
 1.34000000e-01  1.57158418e-08  5.45942704e-06 
 1.35000000e-01  1.60609832e-08  5.45885576e-06 
 1.36000000e-01  1.64131466e-08  5.45827736e-06 
 1.37000000e-01  1.67724576e-08  5.45769173e-06 
 1.38000000e-01  1.71390436e-08  5.45709873e-06 
 1.39000000e-01  1.75130335e-08  5.45649825e-06 
 1.40000000e-01  1.78945579e-08  5.45589014e-06 
 1.41000000e-01  1.82837491e-08  5.45527429e-06 
 1.42000000e-01  1.86807408e-08  5.45465055e-06 
 1.43000000e-01  1.90856687e-08  5.45401880e-06 
 1.44000000e-01  1.94986697e-08  5.45337889e-06 
 1.45000000e-01  1.99198827e-08  5.45273070e-06 
 1.46000000e-01  2.03494479e-08  5.45207408e-06 
 1.47000000e-01  2.07875071e-08  5.45140889e-06 
 1.48000000e-01  2.12342040e-08  5.45073500e-06 
 1.49000000e-01  2.16896833e-08  5.45005225e-06 
 1.50000000e-01  2.21540918e-08  5.44936051e-06 
 1.51000000e-01  2.26275776e-08  5.44865962e-06 
 1.52000000e-01  2.31102900e-08  5.44794944e-06 
 1.53000000e-01  2.36023804e-08  5.44722982e-06 
 1.54000000e-01  2.41040012e-08  5.44650060e-06 
 1.55000000e-01  2.46153064e-08  5.44576165e-06 
 1.56000000e-01  2.51364513e-08  5.44501279e-06 
 1.57000000e-01  2.56675930e-08  5.44425389e-06 
 1.58000000e-01  2.62088893e-08  5.44348478e-06 
 1.59000000e-01  2.67605000e-08  5.44270531e-06 
 1.60000000e-01  2.73225856e-08  5.44191531e-06 
 1.61000000e-01  2.78953083e-08  5.44111462e-06 
 1.62000000e-01  2.84788318e-08  5.44030309e-06 
 1.63000000e-01  2.90733201e-08  5.43948055e-06 
 1.64000000e-01  2.96789392e-08  5.43864684e-06 
 1.65000000e-01  3.02958561e-08  5.43780180e-06 
 1.66000000e-01  3.09242383e-08  5.43694524e-06 
 1.67000000e-01  3.15642552e-08  5.43607703e-06 
 1.68000000e-01  3.22160767e-08  5.43519697e-06 
 1.69000000e-01  3.28798737e-08  5.43430491e-06 
 1.70000000e-01  3.35558183e-08  5.43340068e-06 
 1.71000000e-01  3.42440832e-08  5.43248410e-06 
 1.72000000e-01  3.49448420e-08  5.43155500e-06 
 1.73000000e-01  3.56582693e-08  5.43061321e-06 
 1.74000000e-01  3.63845401e-08  5.42965856e-06 
 1.75000000e-01  3.71238303e-08  5.42869088e-06 
 1.76000000e-01  3.78763164e-08  5.42770998e-06 
 1.77000000e-01  3.86421753e-08  5.42671570e-06 
 1.78000000e-01  3.94215848e-08  5.42570786e-06 
 1.79000000e-01  4.02147230e-08  5.42468628e-06 
 1.80000000e-01  4.10217679e-08  5.42365079e-06 
 1.81000000e-01  4.18428989e-08  5.42260122e-06 
 1.82000000e-01  4.26782948e-08  5.42153738e-06 
 1.83000000e-01  4.35281348e-08  5.42045910e-06 
 1.84000000e-01  4.43925985e-08  5.41936619e-06 
 1.85000000e-01  4.52718654e-08  5.41825849e-06 
 1.86000000e-01  4.61661154e-08  5.41713582e-06 
 1.87000000e-01  4.70755279e-08  5.41599800e-06 
 1.88000000e-01  4.80002827e-08  5.41484486e-06 
 1.89000000e-01  4.89405588e-08  5.41367621e-06 
 1.90000000e-01  4.98965356e-08  5.41249187e-06 
 1.91000000e-01  5.08683920e-08  5.41129168e-06 
 1.92000000e-01  5.18563061e-08  5.41007546e-06 
 1.93000000e-01  5.28604566e-08  5.40884303e-06 
 1.94000000e-01  5.38810209e-08  5.40759421e-06 
 1.95000000e-01  5.49181760e-08  5.40632883e-06 
 1.96000000e-01  5.59720984e-08  5.40504673e-06 
 1.97000000e-01  5.70429638e-08  5.40374771e-06 
 1.98000000e-01  5.81309472e-08  5.40243162e-06 
 1.99000000e-01  5.92362231e-08  5.40109828e-06 
 2.00000000e-01  6.03589642e-08  5.39974752e-06 
 2.01000000e-01  6.14993433e-08  5.39837917e-06 
 2.02000000e-01  6.26575311e-08  5.39699305e-06 
 2.03000000e-01  6.38336986e-08  5.39558901e-06 
 2.04000000e-01  6.50280142e-08  5.39416688e-06 
 2.05000000e-01  6.62406460e-08  5.39272649e-06 
 2.06000000e-01  6.74717602e-08  5.39126767e-06 
 2.07000000e-01  6.87215224e-08  5.38979027e-06 
 2.08000000e-01  6.99900955e-08  5.38829412e-06 
 2.09000000e-01  7.12776425e-08  5.38677907e-06 
 2.10000000e-01  7.25843236e-08  5.38524495e-06 
 2.11000000e-01  7.39102979e-08  5.38369161e-06 
 2.12000000e-01  7.52557231e-08  5.38211889e-06 
 2.13000000e-01  7.66207544e-08  5.38052664e-06 
 2.14000000e-01  7.80055454e-08  5.37891471e-06 
 2.15000000e-01  7.94102485e-08  5.37728296e-06 
 2.16000000e-01  8.08350136e-08  5.37563122e-06 
 2.17000000e-01  8.22799886e-08  5.37395936e-06 
 2.18000000e-01  8.37453199e-08  5.37226723e-06 
 2.19000000e-01  8.52311509e-08  5.37055470e-06 
 2.20000000e-01  8.67376233e-08  5.36882161e-06 
 2.21000000e-01  8.82648774e-08  5.36706783e-06 
 2.22000000e-01  8.98130504e-08  5.36529324e-06 
 2.23000000e-01  9.13822770e-08  5.36349769e-06 
 2.24000000e-01  9.29726903e-08  5.36168106e-06 
 2.25000000e-01  9.45844204e-08  5.35984321e-06 
 2.26000000e-01  9.62175955e-08  5.35798403e-06 
 2.27000000e-01  9.78723412e-08  5.35610338e-06 
 2.28000000e-01  9.95487805e-08  5.35420115e-06 
 2.29000000e-01  1.01247033e-07  5.35227722e-06 
 2.30000000e-01  1.02967218e-07  5.35033147e-06 
 2.31000000e-01  1.04709450e-07  5.34836379e-06 
 2.32000000e-01  1.06473843e-07  5.34637407e-06 
 2.33000000e-01  1.08260504e-07  5.34436220e-06 
 2.34000000e-01  1.10069543e-07  5.34232807e-06 
 2.35000000e-01  1.11901064e-07  5.34027159e-06 
 2.36000000e-01  1.13755168e-07  5.33819265e-06 
 2.37000000e-01  1.15631954e-07  5.33609116e-06 
 2.38000000e-01  1.17531520e-07  5.33396701e-06 
 2.39000000e-01  1.19453957e-07  5.33182013e-06 
 2.40000000e-01  1.21399357e-07  5.32965042e-06 
 2.41000000e-01  1.23367807e-07  5.32745779e-06 
 2.42000000e-01  1.25359393e-07  5.32524217e-06 
 2.43000000e-01  1.27374196e-07  5.32300346e-06 
 2.44000000e-01  1.29412296e-07  5.32074160e-06 
 2.45000000e-01  1.31473767e-07  5.31845651e-06 
 2.46000000e-01  1.33558684e-07  5.31614811e-06 
 2.47000000e-01  1.35667118e-07  5.31381635e-06 
 2.48000000e-01  1.37799135e-07  5.31146115e-06 
 2.49000000e-01  1.39954799e-07  5.30908245e-06 
 2.50000000e-01  1.42134174e-07  5.30668019e-06 
 2.51000000e-01  1.44337316e-07  5.30425431e-06 
 2.52000000e-01  1.46564283e-07  5.30180476e-06 
 2.53000000e-01  1.48815126e-07  5.29933148e-06 
 2.54000000e-01  1.51089896e-07  5.29683444e-06 
 2.55000000e-01  1.53388640e-07  5.29431358e-06 
 2.56000000e-01  1.55711400e-07  5.29176885e-06 
 2.57000000e-01  1.58058221e-07  5.28920023e-06 
 2.58000000e-01  1.60429138e-07  5.28660767e-06 
 2.59000000e-01  1.62824189e-07  5.28399113e-06 
 2.60000000e-01  1.65243405e-07  5.28135060e-06 
 2.61000000e-01  1.67686817e-07  5.27868603e-06 
 2.62000000e-01  1.70154450e-07  5.27599740e-06 
 2.63000000e-01  1.72646331e-07  5.27328470e-06 
 2.64000000e-01  1.75162480e-07  5.27054789e-06 
 2.65000000e-01  1.77702916e-07  5.26778696e-06 
 2.66000000e-01  1.80267654e-07  5.26500189e-06 
 2.67000000e-01  1.82856709e-07  5.26219268e-06 
 2.68000000e-01  1.85470090e-07  5.25935932e-06 
 2.69000000e-01  1.88107806e-07  5.25650179e-06 
 2.70000000e-01  1.90769863e-07  5.25362009e-06 
 2.71000000e-01  1.93456262e-07  5.25071422e-06 
 2.72000000e-01  1.96167003e-07  5.24778418e-06 
 2.73000000e-01  1.98902086e-07  5.24482997e-06 
 2.74000000e-01  2.01661504e-07  5.24185161e-06 
 2.75000000e-01  2.04445250e-07  5.23884908e-06 
 2.76000000e-01  2.07253315e-07  5.23582242e-06 
 2.77000000e-01  2.10085685e-07  5.23277163e-06 
 2.78000000e-01  2.12942347e-07  5.22969672e-06 
 2.79000000e-01  2.15823284e-07  5.22659771e-06 
 2.80000000e-01  2.18728476e-07  5.22347463e-06 
 2.81000000e-01  2.21657902e-07  5.22032750e-06 
 2.82000000e-01  2.24611537e-07  5.21715633e-06 
 2.83000000e-01  2.27589355e-07  5.21396115e-06 
 2.84000000e-01  2.30591329e-07  5.21074201e-06 
 2.85000000e-01  2.33617428e-07  5.20749891e-06 
 2.86000000e-01  2.36667618e-07  5.20423191e-06 
 2.87000000e-01  2.39741867e-07  5.20094103e-06 
 2.88000000e-01  2.42840137e-07  5.19762631e-06 
 2.89000000e-01  2.45962389e-07  5.19428778e-06 
 2.90000000e-01  2.49108583e-07  5.19092550e-06 
 2.91000000e-01  2.52278676e-07  5.18753949e-06 
 2.92000000e-01  2.55472624e-07  5.18412982e-06 
 2.93000000e-01  2.58690381e-07  5.18069652e-06 
 2.94000000e-01  2.61931898e-07  5.17723964e-06 
 2.95000000e-01  2.65197126e-07  5.17375923e-06 
 2.96000000e-01  2.68486012e-07  5.17025534e-06 
 2.97000000e-01  2.71798505e-07  5.16672803e-06 
 2.98000000e-01  2.75134548e-07  5.16317735e-06 
 2.99000000e-01  2.78494085e-07  5.15960336e-06 
 3.00000000e-01  2.81877059e-07  5.15600612e-06 
 3.01000000e-01  2.85283408e-07  5.15238568e-06 
 3.02000000e-01  2.88713073e-07  5.14874211e-06 
 3.03000000e-01  2.92165990e-07  5.14507547e-06 
 3.04000000e-01  2.95642095e-07  5.14138582e-06 
 3.05000000e-01  2.99141322e-07  5.13767323e-06 
 3.06000000e-01  3.02663605e-07  5.13393777e-06 
 3.07000000e-01  3.06208876e-07  5.13017950e-06 
 3.08000000e-01  3.09777063e-07  5.12639850e-06 
 3.09000000e-01  3.13368099e-07  5.12259483e-06 
 3.10000000e-01  3.16981908e-07  5.11876856e-06 
 3.11000000e-01  3.20618420e-07  5.11491978e-06 
 3.12000000e-01  3.24277558e-07  5.11104855e-06 
 3.13000000e-01  3.27959250e-07  5.10715494e-06 
 3.14000000e-01  3.31663415e-07  5.10323905e-06 
 3.15000000e-01  3.35389979e-07  5.09930093e-06 
 3.16000000e-01  3.39138862e-07  5.09534067e-06 
 3.17000000e-01  3.42909983e-07  5.09135836e-06 
 3.18000000e-01  3.46703263e-07  5.08735406e-06 
 3.19000000e-01  3.50518620e-07  5.08332787e-06 
 3.20000000e-01  3.54355973e-07  5.07927985e-06 
 3.21000000e-01  3.58215236e-07  5.07521011e-06 
 3.22000000e-01  3.62096326e-07  5.07111871e-06 
 3.23000000e-01  3.65999160e-07  5.06700575e-06 
 3.24000000e-01  3.69923650e-07  5.06287131e-06 
 3.25000000e-01  3.73869712e-07  5.05871547e-06 
 3.26000000e-01  3.77837255e-07  5.05453833e-06 
 3.27000000e-01  3.81826194e-07  5.05033996e-06 
 3.28000000e-01  3.85836441e-07  5.04612046e-06 
 3.29000000e-01  3.89867907e-07  5.04187993e-06 
 3.30000000e-01  3.93920500e-07  5.03761843e-06 
 3.31000000e-01  3.97994131e-07  5.03333606e-06 
 3.32000000e-01  4.02088710e-07  5.02903293e-06 
 3.33000000e-01  4.06204146e-07  5.02470911e-06 
 3.34000000e-01  4.10340347e-07  5.02036470e-06 
 3.35000000e-01  4.14497219e-07  5.01599978e-06 
 3.36000000e-01  4.18674670e-07  5.01161446e-06 
 3.37000000e-01  4.22872609e-07  5.00720882e-06 
 3.38000000e-01  4.27090941e-07  5.00278295e-06 
 3.39000000e-01  4.31329572e-07  4.99833696e-06 
 3.40000000e-01  4.35588408e-07  4.99387093e-06 
 3.41000000e-01  4.39867356e-07  4.98938496e-06 
 3.42000000e-01  4.44166318e-07  4.98487913e-06 
 3.43000000e-01  4.48485203e-07  4.98035356e-06 
 3.44000000e-01  4.52823912e-07  4.97580832e-06 
 3.45000000e-01  4.57182351e-07  4.97124352e-06 
 3.46000000e-01  4.61560425e-07  4.96665925e-06 
 3.47000000e-01  4.65958036e-07  4.96205561e-06 
 3.48000000e-01  4.70375090e-07  4.95743268e-06 
 3.49000000e-01  4.74811490e-07  4.95279058e-06 
 3.50000000e-01  4.79267138e-07  4.94812939e-06 
 3.51000000e-01  4.83741940e-07  4.94344920e-06 
 3.52000000e-01  4.88235797e-07  4.93875013e-06 
 3.53000000e-01  4.92748613e-07  4.93403225e-06 
 3.54000000e-01  4.97280293e-07  4.92929567e-06 
 3.55000000e-01  5.01830737e-07  4.92454048e-06 
 3.56000000e-01  5.06399850e-07  4.91976679e-06 
 3.57000000e-01  5.10987535e-07  4.91497468e-06 
 3.58000000e-01  5.15593695e-07  4.91016425e-06 
 3.59000000e-01  5.20218233e-07  4.90533561e-06 
 3.60000000e-01  5.24861051e-07  4.90048883e-06 
 3.61000000e-01  5.29522054e-07  4.89562404e-06 
 3.62000000e-01  5.34201143e-07  4.89074130e-06 
 3.63000000e-01  5.38898222e-07  4.88584073e-06 
 3.64000000e-01  5.43613195e-07  4.88092242e-06 
 3.65000000e-01  5.48345964e-07  4.87598646e-06 
 3.66000000e-01  5.53096436e-07  4.87103297e-06 
 3.67000000e-01  5.57864510e-07  4.86606201e-06 
 3.68000000e-01  5.62650093e-07  4.86107370e-06 
 3.69000000e-01  5.67453086e-07  4.85606813e-06 
 3.70000000e-01  5.72273395e-07  4.85104538e-06 
 3.71000000e-01  5.77110925e-07  4.84600558e-06 
 3.72000000e-01  5.81965579e-07  4.84094879e-06 
 3.73000000e-01  5.86837261e-07  4.83587512e-06 
 3.74000000e-01  5.91725876e-07  4.83078467e-06 
 3.75000000e-01  5.96631330e-07  4.82567752e-06 
 3.76000000e-01  6.01553525e-07  4.82055378e-06 
 3.77000000e-01  6.06492371e-07  4.81541353e-06 
 3.78000000e-01  6.11447770e-07  4.81025687e-06 
 3.79000000e-01  6.16419630e-07  4.80508390e-06 
 3.80000000e-01  6.21407853e-07  4.79989470e-06 
 3.81000000e-01  6.26412351e-07  4.79468938e-06 
 3.82000000e-01  6.31433025e-07  4.78946801e-06 
 3.83000000e-01  6.36469785e-07  4.78423070e-06 
 3.84000000e-01  6.41522539e-07  4.77897754e-06 
 3.85000000e-01  6.46591191e-07  4.77370862e-06 
 3.86000000e-01  6.51675649e-07  4.76842403e-06 
 3.87000000e-01  6.56775823e-07  4.76312387e-06 
 3.88000000e-01  6.61891620e-07  4.75780822e-06 
 3.89000000e-01  6.67022949e-07  4.75247717e-06 
 3.90000000e-01  6.72169717e-07  4.74713082e-06 
 3.91000000e-01  6.77331834e-07  4.74176926e-06 
 3.92000000e-01  6.82509211e-07  4.73639257e-06 
 3.93000000e-01  6.87701756e-07  4.73100085e-06 
 3.94000000e-01  6.92909379e-07  4.72559419e-06 
 3.95000000e-01  6.98131990e-07  4.72017267e-06 
 3.96000000e-01  7.03369501e-07  4.71473638e-06 
 3.97000000e-01  7.08621822e-07  4.70928541e-06 
 3.98000000e-01  7.13888863e-07  4.70381986e-06 
 3.99000000e-01  7.19170539e-07  4.69833980e-06 
 4.00000000e-01  7.24466759e-07  4.69284533e-06 
 4.01000000e-01  7.29777438e-07  4.68733652e-06 
 4.02000000e-01  7.35102486e-07  4.68181348e-06 
 4.03000000e-01  7.40441817e-07  4.67627628e-06 
 4.04000000e-01  7.45795346e-07  4.67072501e-06 
 4.05000000e-01  7.51162983e-07  4.66515976e-06 
 4.06000000e-01  7.56544647e-07  4.65958061e-06 
 4.07000000e-01  7.61940250e-07  4.65398765e-06 
 4.08000000e-01  7.67349705e-07  4.64838095e-06 
 4.09000000e-01  7.72772930e-07  4.64276061e-06 
 4.10000000e-01  7.78209841e-07  4.63712672e-06 
 4.11000000e-01  7.83660351e-07  4.63147934e-06 
 4.12000000e-01  7.89124379e-07  4.62581857e-06 
 4.13000000e-01  7.94601841e-07  4.62014449e-06 
 4.14000000e-01  8.00092652e-07  4.61445718e-06 
 4.15000000e-01  8.05596734e-07  4.60875672e-06 
 4.16000000e-01  8.11114001e-07  4.60304319e-06 
 4.17000000e-01  8.16644371e-07  4.59731668e-06 
 4.18000000e-01  8.22187766e-07  4.59157727e-06 
 4.19000000e-01  8.27744101e-07  4.58582503e-06 
 4.20000000e-01  8.33313299e-07  4.58006005e-06 
 4.21000000e-01  8.38895278e-07  4.57428241e-06 
 4.22000000e-01  8.44489956e-07  4.56849218e-06 
 4.23000000e-01  8.50097259e-07  4.56268945e-06 
 4.24000000e-01  8.55717103e-07  4.55687429e-06 
 4.25000000e-01  8.61349411e-07  4.55104678e-06 
 4.26000000e-01  8.66994104e-07  4.54520700e-06 
 4.27000000e-01  8.72651105e-07  4.53935502e-06 
 4.28000000e-01  8.78320336e-07  4.53349093e-06 
 4.29000000e-01  8.84001720e-07  4.52761480e-06 
 4.30000000e-01  8.89695182e-07  4.52172671e-06 
 4.31000000e-01  8.95400641e-07  4.51582673e-06 
 4.32000000e-01  9.01118024e-07  4.50991494e-06 
 4.33000000e-01  9.06847254e-07  4.50399141e-06 
 4.34000000e-01  9.12588258e-07  4.49805622e-06 
 4.35000000e-01  9.18340958e-07  4.49210944e-06 
 4.36000000e-01  9.24105283e-07  4.48615115e-06 
 4.37000000e-01  9.29881156e-07  4.48018142e-06 
 4.38000000e-01  9.35668504e-07  4.47420032e-06 
 4.39000000e-01  9.41467254e-07  4.46820793e-06 
 4.40000000e-01  9.47277334e-07  4.46220431e-06 
 4.41000000e-01  9.53098668e-07  4.45618955e-06 
 4.42000000e-01  9.58931188e-07  4.45016371e-06 
 4.43000000e-01  9.64774818e-07  4.44412686e-06 
 4.44000000e-01  9.70629490e-07  4.43807908e-06 
 4.45000000e-01  9.76495129e-07  4.43202044e-06 
 4.46000000e-01  9.82371668e-07  4.42595100e-06 
 4.47000000e-01  9.88259035e-07  4.41987084e-06 
 4.48000000e-01  9.94157160e-07  4.41378002e-06 
 4.49000000e-01  1.00006597e-06  4.40767862e-06 
 4.50000000e-01  1.00598541e-06  4.40156671e-06 
 4.51000000e-01  1.01191539e-06  4.39544434e-06 
 4.52000000e-01  1.01785585e-06  4.38931160e-06 
 4.53000000e-01  1.02380672e-06  4.38316854e-06 
 4.54000000e-01  1.02976795e-06  4.37701524e-06 
 4.55000000e-01  1.03573944e-06  4.37085177e-06 
 4.56000000e-01  1.04172115e-06  4.36467818e-06 
 4.57000000e-01  1.04771301e-06  4.35849455e-06 
 4.58000000e-01  1.05371493e-06  4.35230095e-06 
 4.59000000e-01  1.05972687e-06  4.34609743e-06 
 4.60000000e-01  1.06574876e-06  4.33988406e-06 
 4.61000000e-01  1.07178053e-06  4.33366091e-06 
 4.62000000e-01  1.07782211e-06  4.32742805e-06 
 4.63000000e-01  1.08387344e-06  4.32118554e-06 
 4.64000000e-01  1.08993445e-06  4.31493343e-06 
 4.65000000e-01  1.09600509e-06  4.30867180e-06 
 4.66000000e-01  1.10208528e-06  4.30240071e-06 
 4.67000000e-01  1.10817497e-06  4.29612022e-06 
 4.68000000e-01  1.11427409e-06  4.28983040e-06 
 4.69000000e-01  1.12038258e-06  4.28353130e-06 
 4.70000000e-01  1.12650037e-06  4.27722299e-06 
 4.71000000e-01  1.13262741e-06  4.27090554e-06 
 4.72000000e-01  1.13876363e-06  4.26457899e-06 
 4.73000000e-01  1.14490897e-06  4.25824342e-06 
 4.74000000e-01  1.15106336e-06  4.25189888e-06 
 4.75000000e-01  1.15722676e-06  4.24554544e-06 
 4.76000000e-01  1.16339910e-06  4.23918315e-06 
 4.77000000e-01  1.16958031e-06  4.23281207e-06 
 4.78000000e-01  1.17577034e-06  4.22643227e-06 
 4.79000000e-01  1.18196913e-06  4.22004380e-06 
 4.80000000e-01  1.18817662e-06  4.21364672e-06 
 4.81000000e-01  1.19439275e-06  4.20724110e-06 
 4.82000000e-01  1.20061746e-06  4.20082698e-06 
 4.83000000e-01  1.20685070e-06  4.19440443e-06 
 4.84000000e-01  1.21309240e-06  4.18797351e-06 
 4.85000000e-01  1.21934251e-06  4.18153427e-06 
 4.86000000e-01  1.22560096e-06  4.17508676e-06 
 4.87000000e-01  1.23186771e-06  4.16863105e-06 
 4.88000000e-01  1.23814270e-06  4.16216720e-06 
 4.89000000e-01  1.24442587e-06  4.15569525e-06 
 4.90000000e-01  1.25071715e-06  4.14921527e-06 
 4.91000000e-01  1.25701651e-06  4.14272731e-06 
 4.92000000e-01  1.26332388e-06  4.13623142e-06 
 4.93000000e-01  1.26963920e-06  4.12972767e-06 
 4.94000000e-01  1.27596243e-06  4.12321610e-06 
 4.95000000e-01  1.28229350e-06  4.11669677e-06 
 4.96000000e-01  1.28863236e-06  4.11016974e-06 
 4.97000000e-01  1.29497896e-06  4.10363506e-06 
 4.98000000e-01  1.30133325e-06  4.09709278e-06 
 4.99000000e-01  1.30769516e-06  4.09054295e-06 
 5.00000000e-01  1.31406465e-06  4.08398564e-06 
 5.01000000e-01  1.32044166e-06  4.07742089e-06 
 5.02000000e-01  1.32682614e-06  4.07084875e-06 
 5.03000000e-01  1.33321804e-06  4.06426928e-06 
 5.04000000e-01  1.33961730e-06  4.05768253e-06 
 5.05000000e-01  1.34602387e-06  4.05108855e-06 
 5.06000000e-01  1.35243771e-06  4.04448740e-06 
