 v-sweep         i(V4)           i(V5)          
 1.00000000e-01  3.63349008e-07  9.84025118e-06 
 1.01000000e-01  3.67374962e-07  9.83556391e-06 
 1.02000000e-01  3.71450024e-07  9.83082829e-06 
 1.03000000e-01  3.75537257e-07  9.82608069e-06 
 1.04000000e-01  3.79648877e-07  9.82130907e-06 
 1.05000000e-01  3.83784810e-07  9.81651351e-06 
 1.06000000e-01  3.87944985e-07  9.81169409e-06 
 1.07000000e-01  3.92129325e-07  9.80685088e-06 
 1.08000000e-01  3.96337754e-07  9.80198395e-06 
 1.09000000e-01  4.00570197e-07  9.79709338e-06 
 1.10000000e-01  4.04826575e-07  9.79217924e-06 
 1.11000000e-01  4.09106810e-07  9.78724161e-06 
 1.12000000e-01  4.13410823e-07  9.78228058e-06 
 1.13000000e-01  4.17738534e-07  9.77729621e-06 
 1.14000000e-01  4.22089862e-07  9.77228859e-06 
 1.15000000e-01  4.26464725e-07  9.76725780e-06 
 1.16000000e-01  4.30863044e-07  9.76220392e-06 
 1.17000000e-01  4.35284733e-07  9.75712703e-06 
 1.18000000e-01  4.39729709e-07  9.75202721e-06 
 1.19000000e-01  4.44197890e-07  9.74690454e-06 
 1.20000000e-01  4.48689190e-07  9.74175912e-06 
 1.21000000e-01  4.53203524e-07  9.73659102e-06 
 1.22000000e-01  4.57740807e-07  9.73140032e-06 
 1.23000000e-01  4.62300953e-07  9.72618712e-06 
 1.24000000e-01  4.66883875e-07  9.72095149e-06 
 1.25000000e-01  4.71489484e-07  9.71569352e-06 
 1.26000000e-01  4.76117697e-07  9.71041330e-06 
 1.27000000e-01  4.80768422e-07  9.70511092e-06 
 1.28000000e-01  4.85441573e-07  9.69978646e-06 
 1.29000000e-01  4.90137060e-07  9.69444000e-06 
 1.30000000e-01  4.94854795e-07  9.68907164e-06 
 1.31000000e-01  4.99594688e-07  9.68368147e-06 
 1.32000000e-01  5.04356651e-07  9.67826957e-06 
 1.33000000e-01  5.09140591e-07  9.67283602e-06 
 1.34000000e-01  5.13946420e-07  9.66738092e-06 
 1.35000000e-01  5.18774048e-07  9.66190437e-06 
 1.36000000e-01  5.23623383e-07  9.65640643e-06 
 1.37000000e-01  5.28494335e-07  9.65088721e-06 
 1.38000000e-01  5.33386813e-07  9.64534680e-06 
 1.39000000e-01  5.38300725e-07  9.63978528e-06 
 1.40000000e-01  5.43235981e-07  9.63420275e-06 
 1.41000000e-01  5.48192488e-07  9.62859929e-06 
 1.42000000e-01  5.53170157e-07  9.62297500e-06 
 1.43000000e-01  5.58168893e-07  9.61732995e-06 
 1.44000000e-01  5.63188606e-07  9.61166425e-06 
 1.45000000e-01  5.68229203e-07  9.60597799e-06 
 1.46000000e-01  5.73290595e-07  9.60027125e-06 
 1.47000000e-01  5.78372687e-07  9.59454412e-06 
 1.48000000e-01  5.83475389e-07  9.58879670e-06 
 1.49000000e-01  5.88598607e-07  9.58302907e-06 
 1.50000000e-01  5.93742251e-07  9.57724133e-06 
 1.51000000e-01  5.98906228e-07  9.57143356e-06 
 1.52000000e-01  6.04090447e-07  9.56560586e-06 
 1.53000000e-01  6.09294816e-07  9.55975832e-06 
 1.54000000e-01  6.14519241e-07  9.55389101e-06 
 1.55000000e-01  6.19763633e-07  9.54800405e-06 
 1.56000000e-01  6.25027899e-07  9.54209751e-06 
 1.57000000e-01  6.30311948e-07  9.53617148e-06 
 1.58000000e-01  6.35615688e-07  9.53022606e-06 
 1.59000000e-01  6.40939029e-07  9.52426134e-06 
 1.60000000e-01  6.46281877e-07  9.51827740e-06 
 1.61000000e-01  6.51644144e-07  9.51227433e-06 
 1.62000000e-01  6.57025738e-07  9.50625222e-06 
 1.63000000e-01  6.62426567e-07  9.50021117e-06 
 1.64000000e-01  6.67846542e-07  9.49415125e-06 
 1.65000000e-01  6.73285573e-07  9.48807257e-06 
 1.66000000e-01  6.78743566e-07  9.48197519e-06 
 1.67000000e-01  6.84220436e-07  9.47585923e-06 
 1.68000000e-01  6.89716089e-07  9.46972476e-06 
 1.69000000e-01  6.95230439e-07  9.46357187e-06 
 1.70000000e-01  7.00763393e-07  9.45740065e-06 
 1.71000000e-01  7.06314864e-07  9.45121119e-06 
 1.72000000e-01  7.11884762e-07  9.44500357e-06 
 1.73000000e-01  7.17473000e-07  9.43877788e-06 
 1.74000000e-01  7.23079487e-07  9.43253421e-06 
 1.75000000e-01  7.28704137e-07  9.42627265e-06 
 1.76000000e-01  7.34346862e-07  9.41999327e-06 
 1.77000000e-01  7.40007571e-07  9.41369617e-06 
 1.78000000e-01  7.45686180e-07  9.40738143e-06 
 1.79000000e-01  7.51382601e-07  9.40104914e-06 
 1.80000000e-01  7.57096746e-07  9.39469938e-06 
 1.81000000e-01  7.62828530e-07  9.38833224e-06 
 1.82000000e-01  7.68577866e-07  9.38194780e-06 
 1.83000000e-01  7.74344668e-07  9.37554615e-06 
 1.84000000e-01  7.80128849e-07  9.36912736e-06 
 1.85000000e-01  7.85930325e-07  9.36269153e-06 
 1.86000000e-01  7.91749013e-07  9.35623874e-06 
 1.87000000e-01  7.97584824e-07  9.34976907e-06 
 1.88000000e-01  8.03437676e-07  9.34328260e-06 
 1.89000000e-01  8.09307485e-07  9.33677941e-06 
 1.90000000e-01  8.15194167e-07  9.33025960e-06 
 1.91000000e-01  8.21097636e-07  9.32372323e-06 
 1.92000000e-01  8.27017814e-07  9.31717039e-06 
 1.93000000e-01  8.32954613e-07  9.31060117e-06 
 1.94000000e-01  8.38907954e-07  9.30401563e-06 
 1.95000000e-01  8.44877753e-07  9.29741387e-06 
 1.96000000e-01  8.50863930e-07  9.29079596e-06 
 1.97000000e-01  8.56866401e-07  9.28416199e-06 
 1.98000000e-01  8.62885088e-07  9.27751203e-06 
 1.99000000e-01  8.68919909e-07  9.27084616e-06 
 2.00000000e-01  8.74970783e-07  9.26416445e-06 
 2.01000000e-01  8.81037631e-07  9.25746700e-06 
 2.02000000e-01  8.87120372e-07  9.25075388e-06 
 2.03000000e-01  8.93218927e-07  9.24402515e-06 
 2.04000000e-01  8.99333220e-07  9.23728091e-06 
 2.05000000e-01  9.05463168e-07  9.23052123e-06 
 2.06000000e-01  9.11608695e-07  9.22374618e-06 
 2.07000000e-01  9.17769725e-07  9.21695584e-06 
 2.08000000e-01  9.23946178e-07  9.21015029e-06 
 2.09000000e-01  9.30137978e-07  9.20332961e-06 
 2.10000000e-01  9.36345047e-07  9.19649385e-06 
 2.11000000e-01  9.42567310e-07  9.18964311e-06 
 2.12000000e-01  9.48804691e-07  9.18277746e-06 
 2.13000000e-01  9.55057114e-07  9.17589697e-06 
 2.14000000e-01  9.61324505e-07  9.16900172e-06 
 2.15000000e-01  9.67606786e-07  9.16209177e-06 
 2.16000000e-01  9.73903886e-07  9.15516720e-06 
 2.17000000e-01  9.80215729e-07  9.14822809e-06 
 2.18000000e-01  9.86542242e-07  9.14127450e-06 
 2.19000000e-01  9.92883351e-07  9.13430650e-06 
 2.20000000e-01  9.99238985e-07  9.12732418e-06 
 2.21000000e-01  1.00560907e-06  9.12032760e-06 
 2.22000000e-01  1.01199353e-06  9.11331683e-06 
 2.23000000e-01  1.01839230e-06  9.10629194e-06 
 2.24000000e-01  1.02480531e-06  9.09925300e-06 
 2.25000000e-01  1.03123248e-06  9.09220008e-06 
 2.26000000e-01  1.03767374e-06  9.08513325e-06 
 2.27000000e-01  1.04412903e-06  9.07805258e-06 
 2.28000000e-01  1.05059827e-06  9.07095813e-06 
 2.29000000e-01  1.05708139e-06  9.06384999e-06 
 2.30000000e-01  1.06357833e-06  9.05672820e-06 
 2.31000000e-01  1.07008901e-06  9.04959285e-06 
 2.32000000e-01  1.07661337e-06  9.04244400e-06 
 2.33000000e-01  1.08315134e-06  9.03528170e-06 
 2.34000000e-01  1.08970285e-06  9.02810605e-06 
 2.35000000e-01  1.09626784e-06  9.02091709e-06 
 2.36000000e-01  1.10284623e-06  9.01371489e-06 
 2.37000000e-01  1.10943796e-06  9.00649952e-06 
 2.38000000e-01  1.11604297e-06  8.99927105e-06 
 2.39000000e-01  1.12266118e-06  8.99202953e-06 
 2.40000000e-01  1.12929254e-06  8.98477504e-06 
 2.41000000e-01  1.13593697e-06  8.97750762e-06 
 2.42000000e-01  1.14259442e-06  8.97022737e-06 
 2.43000000e-01  1.14926481e-06  8.96293432e-06 
 2.44000000e-01  1.15594809e-06  8.95562855e-06 
 2.45000000e-01  1.16264418e-06  8.94831012e-06 
 2.46000000e-01  1.16935304e-06  8.94097908e-06 
 2.47000000e-01  1.17607459e-06  8.93363551e-06 
 2.48000000e-01  1.18280876e-06  8.92627947e-06 
 2.49000000e-01  1.18955551e-06  8.91891100e-06 
 2.50000000e-01  1.19631476e-06  8.91153019e-06 
 2.51000000e-01  1.20308646e-06  8.90413708e-06 
 2.52000000e-01  1.20987054e-06  8.89673174e-06 
 2.53000000e-01  1.21666694e-06  8.88931422e-06 
 2.54000000e-01  1.22347561e-06  8.88188459e-06 
 2.55000000e-01  1.23029648e-06  8.87444290e-06 
 2.56000000e-01  1.23712948e-06  8.86698922e-06 
 2.57000000e-01  1.24397457e-06  8.85952360e-06 
 2.58000000e-01  1.25083169e-06  8.85204610e-06 
 2.59000000e-01  1.25770076e-06  8.84455677e-06 
 2.60000000e-01  1.26458174e-06  8.83705568e-06 
 2.61000000e-01  1.27147457e-06  8.82954289e-06 
 2.62000000e-01  1.27837919e-06  8.82201844e-06 
 2.63000000e-01  1.28529553e-06  8.81448241e-06 
 2.64000000e-01  1.29222356e-06  8.80693483e-06 
 2.65000000e-01  1.29916319e-06  8.79937577e-06 
 2.66000000e-01  1.30611439e-06  8.79180528e-06 
 2.67000000e-01  1.31307709e-06  8.78422342e-06 
 2.68000000e-01  1.32005124e-06  8.77663025e-06 
 2.69000000e-01  1.32703678e-06  8.76902582e-06 
 2.70000000e-01  1.33403366e-06  8.76141017e-06 
 2.71000000e-01  1.34104182e-06  8.75378338e-06 
 2.72000000e-01  1.34806120e-06  8.74614549e-06 
 2.73000000e-01  1.35509176e-06  8.73849654e-06 
 2.74000000e-01  1.36213344e-06  8.73083661e-06 
 2.75000000e-01  1.36918618e-06  8.72316574e-06 
 2.76000000e-01  1.37624993e-06  8.71548398e-06 
 2.77000000e-01  1.38332463e-06  8.70779139e-06 
 2.78000000e-01  1.39041025e-06  8.70008801e-06 
 2.79000000e-01  1.39750671e-06  8.69237390e-06 
 2.80000000e-01  1.40461397e-06  8.68464911e-06 
 2.81000000e-01  1.41173198e-06  8.67691369e-06 
 2.82000000e-01  1.41886069e-06  8.66916770e-06 
 2.83000000e-01  1.42600004e-06  8.66141117e-06 
 2.84000000e-01  1.43314998e-06  8.65364417e-06 
 2.85000000e-01  1.44031047e-06  8.64586675e-06 
 2.86000000e-01  1.44748144e-06  8.63807894e-06 
 2.87000000e-01  1.45466286e-06  8.63028081e-06 
 2.88000000e-01  1.46185466e-06  8.62247240e-06 
 2.89000000e-01  1.46905681e-06  8.61465375e-06 
 2.90000000e-01  1.47626925e-06  8.60682493e-06 
 2.91000000e-01  1.48349193e-06  8.59898598e-06 
 2.92000000e-01  1.49072481e-06  8.59113693e-06 
 2.93000000e-01  1.49796783e-06  8.58327786e-06 
 2.94000000e-01  1.50522094e-06  8.57540879e-06 
 2.95000000e-01  1.51248410e-06  8.56752978e-06 
 2.96000000e-01  1.51975727e-06  8.55964088e-06 
 2.97000000e-01  1.52704038e-06  8.55174212e-06 
 2.98000000e-01  1.53433340e-06  8.54383357e-06 
 2.99000000e-01  1.54163628e-06  8.53591526e-06 
 3.00000000e-01  1.54894897e-06  8.52798724e-06 
 3.01000000e-01  1.55627142e-06  8.52004956e-06 
 3.02000000e-01  1.56360359e-06  8.51210226e-06 
 3.03000000e-01  1.57094543e-06  8.50414538e-06 
 3.04000000e-01  1.57829690e-06  8.49617898e-06 
 3.05000000e-01  1.58565795e-06  8.48820310e-06 
 3.06000000e-01  1.59302853e-06  8.48021778e-06 
 3.07000000e-01  1.60040860e-06  8.47222306e-06 
 3.08000000e-01  1.60779812e-06  8.46421900e-06 
 3.09000000e-01  1.61519704e-06  8.45620562e-06 
 3.10000000e-01  1.62260531e-06  8.44818299e-06 
 3.11000000e-01  1.63002290e-06  8.44015114e-06 
 3.12000000e-01  1.63744975e-06  8.43211011e-06 
 3.13000000e-01  1.64488583e-06  8.42405995e-06 
 3.14000000e-01  1.65233108e-06  8.41600070e-06 
 3.15000000e-01  1.65978548e-06  8.40793241e-06 
 3.16000000e-01  1.66724897e-06  8.39985510e-06 
 3.17000000e-01  1.67472151e-06  8.39176884e-06 
 3.18000000e-01  1.68220306e-06  8.38367365e-06 
 3.19000000e-01  1.68969357e-06  8.37556959e-06 
 3.20000000e-01  1.69719301e-06  8.36745668e-06 
 3.21000000e-01  1.70470133e-06  8.35933498e-06 
 3.22000000e-01  1.71221850e-06  8.35120453e-06 
 3.23000000e-01  1.71974446e-06  8.34306536e-06 
 3.24000000e-01  1.72727918e-06  8.33491751e-06 
 3.25000000e-01  1.73482262e-06  8.32676104e-06 
 3.26000000e-01  1.74237473e-06  8.31859596e-06 
 3.27000000e-01  1.74993548e-06  8.31042234e-06 
 3.28000000e-01  1.75750482e-06  8.30224020e-06 
 3.29000000e-01  1.76508272e-06  8.29404959e-06 
 3.30000000e-01  1.77266913e-06  8.28585054e-06 
 3.31000000e-01  1.78026402e-06  8.27764309e-06 
 3.32000000e-01  1.78786734e-06  8.26942729e-06 
 3.33000000e-01  1.79547906e-06  8.26120317e-06 
 3.34000000e-01  1.80309914e-06  8.25297078e-06 
 3.35000000e-01  1.81072753e-06  8.24473014e-06 
 3.36000000e-01  1.81836420e-06  8.23648130e-06 
 3.37000000e-01  1.82600911e-06  8.22822429e-06 
 3.38000000e-01  1.83366222e-06  8.21995916e-06 
 3.39000000e-01  1.84132350e-06  8.21168594e-06 
 3.40000000e-01  1.84899290e-06  8.20340466e-06 
 3.41000000e-01  1.85667039e-06  8.19511538e-06 
 3.42000000e-01  1.86435593e-06  8.18681812e-06 
 3.43000000e-01  1.87204948e-06  8.17851291e-06 
 3.44000000e-01  1.87975100e-06  8.17019981e-06 
 3.45000000e-01  1.88746047e-06  8.16187883e-06 
 3.46000000e-01  1.89517783e-06  8.15355003e-06 
 3.47000000e-01  1.90290306e-06  8.14521344e-06 
 3.48000000e-01  1.91063611e-06  8.13686908e-06 
 3.49000000e-01  1.91837695e-06  8.12851700e-06 
 3.50000000e-01  1.92612555e-06  8.12015724e-06 
 3.51000000e-01  1.93388187e-06  8.11178983e-06 
 3.52000000e-01  1.94164587e-06  8.10341481e-06 
 3.53000000e-01  1.94941751e-06  8.09503220e-06 
 3.54000000e-01  1.95719677e-06  8.08664205e-06 
 3.55000000e-01  1.96498360e-06  8.07824439e-06 
 3.56000000e-01  1.97277797e-06  8.06983926e-06 
 3.57000000e-01  1.98057984e-06  8.06142668e-06 
 3.58000000e-01  1.98838919e-06  8.05300670e-06 
 3.59000000e-01  1.99620597e-06  8.04457936e-06 
 3.60000000e-01  2.00403015e-06  8.03614467e-06 
 3.61000000e-01  2.01186170e-06  8.02770268e-06 
 3.62000000e-01  2.01970057e-06  8.01925342e-06 
 3.63000000e-01  2.02754675e-06  8.01079693e-06 
 3.64000000e-01  2.03540019e-06  8.00233323e-06 
 3.65000000e-01  2.04326085e-06  7.99386236e-06 
 3.66000000e-01  2.05112872e-06  7.98538437e-06 
 3.67000000e-01  2.05900374e-06  7.97689927e-06 
 3.68000000e-01  2.06688589e-06  7.96840710e-06 
 3.69000000e-01  2.07477514e-06  7.95990790e-06 
 3.70000000e-01  2.08267145e-06  7.95140169e-06 
 3.71000000e-01  2.09057479e-06  7.94288851e-06 
 3.72000000e-01  2.09848512e-06  7.93436840e-06 
 3.73000000e-01  2.10640242e-06  7.92584138e-06 
 3.74000000e-01  2.11432665e-06  7.91730748e-06 
 3.75000000e-01  2.12225777e-06  7.90876675e-06 
 3.76000000e-01  2.13019577e-06  7.90021920e-06 
 3.77000000e-01  2.13814059e-06  7.89166488e-06 
 3.78000000e-01  2.14609222e-06  7.88310382e-06 
 3.79000000e-01  2.15405062e-06  7.87453603e-06 
 3.80000000e-01  2.16201575e-06  7.86596157e-06 
 3.81000000e-01  2.16998759e-06  7.85738045e-06 
 3.82000000e-01  2.17796611e-06  7.84879272e-06 
 3.83000000e-01  2.18595127e-06  7.84019839e-06 
 3.84000000e-01  2.19394304e-06  7.83159751e-06 
 3.85000000e-01  2.20194139e-06  7.82299010e-06 
 3.86000000e-01  2.20994629e-06  7.81437619e-06 
 3.87000000e-01  2.21795771e-06  7.80575581e-06 
 3.88000000e-01  2.22597562e-06  7.79712900e-06 
 3.89000000e-01  2.23399999e-06  7.78849578e-06 
 3.90000000e-01  2.24203078e-06  7.77985619e-06 
 3.91000000e-01  2.25006797e-06  7.77121025e-06 
 3.92000000e-01  2.25811152e-06  7.76255800e-06 
 3.93000000e-01  2.26616141e-06  7.75389946e-06 
 3.94000000e-01  2.27421761e-06  7.74523467e-06 
 3.95000000e-01  2.28228008e-06  7.73656365e-06 
 3.96000000e-01  2.29034880e-06  7.72788643e-06 
 3.97000000e-01  2.29842374e-06  7.71920304e-06 
 3.98000000e-01  2.30650486e-06  7.71051352e-06 
 3.99000000e-01  2.31459214e-06  7.70181789e-06 
 4.00000000e-01  2.32268555e-06  7.69311618e-06 
 4.01000000e-01  2.33078505e-06  7.68440842e-06 
 4.02000000e-01  2.33889063e-06  7.67569463e-06 
 4.03000000e-01  2.34700225e-06  7.66697486e-06 
 4.04000000e-01  2.35511987e-06  7.65824912e-06 
 4.05000000e-01  2.36324348e-06  7.64951744e-06 
 4.06000000e-01  2.37137305e-06  7.64077986e-06 
 4.07000000e-01  2.37950853e-06  7.63203639e-06 
 4.08000000e-01  2.38764992e-06  7.62328708e-06 
 4.09000000e-01  2.39579717e-06  7.61453194e-06 
 4.10000000e-01  2.40395027e-06  7.60577101e-06 
 4.11000000e-01  2.41210917e-06  7.59700432e-06 
 4.12000000e-01  2.42027386e-06  7.58823188e-06 
 4.13000000e-01  2.42844430e-06  7.57945374e-06 
 4.14000000e-01  2.43662047e-06  7.57066990e-06 
 4.15000000e-01  2.44480235e-06  7.56188042e-06 
 4.16000000e-01  2.45298989e-06  7.55308531e-06 
 4.17000000e-01  2.46118307e-06  7.54428459e-06 
 4.18000000e-01  2.46938188e-06  7.53547831e-06 
 4.19000000e-01  2.47758627e-06  7.52666648e-06 
 4.20000000e-01  2.48579623e-06  7.51784913e-06 
 4.21000000e-01  2.49401171e-06  7.50902628e-06 
 4.22000000e-01  2.50223271e-06  7.50019797e-06 
 4.23000000e-01  2.51045919e-06  7.49136423e-06 
 4.24000000e-01  2.51869112e-06  7.48252507e-06 
 4.25000000e-01  2.52692847e-06  7.47368053e-06 
 4.26000000e-01  2.53517123e-06  7.46483063e-06 
 4.27000000e-01  2.54341936e-06  7.45597540e-06 
 4.28000000e-01  2.55167283e-06  7.44711487e-06 
 4.29000000e-01  2.55993162e-06  7.43824905e-06 
 4.30000000e-01  2.56819571e-06  7.42937799e-06 
 4.31000000e-01  2.57646506e-06  7.42050170e-06 
 4.32000000e-01  2.58473965e-06  7.41162021e-06 
 4.33000000e-01  2.59301946e-06  7.40273354e-06 
 4.34000000e-01  2.60130445e-06  7.39384173e-06 
 4.35000000e-01  2.60959461e-06  7.38494480e-06 
 4.36000000e-01  2.61788990e-06  7.37604276e-06 
 4.37000000e-01  2.62619030e-06  7.36713567e-06 
 4.38000000e-01  2.63449579e-06  7.35822352e-06 
 4.39000000e-01  2.64280633e-06  7.34930636e-06 
 4.40000000e-01  2.65112191e-06  7.34038421e-06 
 4.41000000e-01  2.65944249e-06  7.33145708e-06 
 4.42000000e-01  2.66776805e-06  7.32252501e-06 
 4.43000000e-01  2.67609857e-06  7.31358803e-06 
 4.44000000e-01  2.68443402e-06  7.30464615e-06 
 4.45000000e-01  2.69277437e-06  7.29569941e-06 
 4.46000000e-01  2.70111961e-06  7.28674783e-06 
 4.47000000e-01  2.70946969e-06  7.27779143e-06 
 4.48000000e-01  2.71782461e-06  7.26883024e-06 
 4.49000000e-01  2.72618433e-06  7.25986428e-06 
 4.50000000e-01  2.73454883e-06  7.25089358e-06 
 4.51000000e-01  2.74291809e-06  7.24191816e-06 
 4.52000000e-01  2.75129207e-06  7.23293805e-06 
 4.53000000e-01  2.75967076e-06  7.22395327e-06 
 4.54000000e-01  2.76805413e-06  7.21496385e-06 
 4.55000000e-01  2.77644216e-06  7.20596981e-06 
 4.56000000e-01  2.78483482e-06  7.19697118e-06 
 4.57000000e-01  2.79323208e-06  7.18796798e-06 
 4.58000000e-01  2.80163392e-06  7.17896023e-06 
 4.59000000e-01  2.81004033e-06  7.16994796e-06 
 4.60000000e-01  2.81845126e-06  7.16093119e-06 
 4.61000000e-01  2.82686671e-06  7.15190995e-06 
 4.62000000e-01  2.83528664e-06  7.14288426e-06 
 4.63000000e-01  2.84371103e-06  7.13385415e-06 
 4.64000000e-01  2.85213986e-06  7.12481963e-06 
 4.65000000e-01  2.86057310e-06  7.11578074e-06 
 4.66000000e-01  2.86901072e-06  7.10673749e-06 
 4.67000000e-01  2.87745272e-06  7.09768992e-06 
 4.68000000e-01  2.88589905e-06  7.08863804e-06 
 4.69000000e-01  2.89434971e-06  7.07958188e-06 
 4.70000000e-01  2.90280465e-06  7.07052146e-06 
 4.71000000e-01  2.91126387e-06  7.06145680e-06 
 4.72000000e-01  2.91972733e-06  7.05238794e-06 
 4.73000000e-01  2.92819502e-06  7.04331489e-06 
 4.74000000e-01  2.93666690e-06  7.03423767e-06 
 4.75000000e-01  2.94514297e-06  7.02515631e-06 
 4.76000000e-01  2.95362318e-06  7.01607083e-06 
 4.77000000e-01  2.96210752e-06  7.00698126e-06 
 4.78000000e-01  2.97059597e-06  6.99788762e-06 
 4.79000000e-01  2.97908851e-06  6.98878993e-06 
 4.80000000e-01  2.98758510e-06  6.97968821e-06 
 4.81000000e-01  2.99608573e-06  6.97058249e-06 
 4.82000000e-01  3.00459037e-06  6.96147279e-06 
 4.83000000e-01  3.01309900e-06  6.95235914e-06 
 4.84000000e-01  3.02161160e-06  6.94324155e-06 
 4.85000000e-01  3.03012815e-06  6.93412005e-06 
 4.86000000e-01  3.03864862e-06  6.92499466e-06 
 4.87000000e-01  3.04717298e-06  6.91586541e-06 
 4.88000000e-01  3.05570123e-06  6.90673232e-06 
 4.89000000e-01  3.06423333e-06  6.89759541e-06 
 4.90000000e-01  3.07276925e-06  6.88845470e-06 
 4.91000000e-01  3.08130899e-06  6.87931022e-06 
 4.92000000e-01  3.08985251e-06  6.87016198e-06 
 4.93000000e-01  3.09839980e-06  6.86101002e-06 
 4.94000000e-01  3.10695083e-06  6.85185434e-06 
 4.95000000e-01  3.11550558e-06  6.84269499e-06 
 4.96000000e-01  3.12406402e-06  6.83353197e-06 
 4.97000000e-01  3.13262614e-06  6.82436531e-06 
 4.98000000e-01  3.14119191e-06  6.81519503e-06 
 4.99000000e-01  3.14976130e-06  6.80602116e-06 
 5.00000000e-01  3.15833431e-06  6.79684372e-06 
 5.01000000e-01  3.16691090e-06  6.78766272e-06 
 5.02000000e-01  3.17549105e-06  6.77847819e-06 
 5.03000000e-01  3.18407475e-06  6.76929016e-06 
 5.04000000e-01  3.19266196e-06  6.76009864e-06 
 5.05000000e-01  3.20125267e-06  6.75090366e-06 
 5.06000000e-01  3.20984686e-06  6.74170524e-06 
