 time            i(V4)           i(V5)          
 1.50000000e-05  7.21672241e-08  9.93394446e-06 
 3.00000000e-05  7.21672242e-08  9.93394446e-06 
 6.00000000e-05  7.21672244e-08  9.93394446e-06 
 1.20000000e-04  7.21672243e-08  9.93394446e-06 
 2.40000000e-04  7.21672246e-08  9.93394447e-06 
 4.80000000e-04  7.21672242e-08  9.93394446e-06 
 9.60000000e-04  7.21672244e-08  9.93394446e-06 
 1.92000000e-03  7.21672245e-08  9.93394447e-06 
 3.84000000e-03  7.21672242e-08  9.93394446e-06 
 6.83998000e-03  7.21672245e-08  9.93394447e-06 
 9.83996000e-03  7.21672243e-08  9.93394446e-06 
 1.28399400e-02  7.21672245e-08  9.93394447e-06 
 1.58399200e-02  7.21672245e-08  9.93394446e-06 
 1.88399000e-02  7.21672245e-08  9.93394447e-06 
 2.00000000e-02  7.21672243e-08  9.93394446e-06 
 2.02999980e-02  9.67138631e-06  7.12908351e-12 
 2.08999940e-02  9.67118596e-06 -5.27779875e-13 
 2.20999860e-02  9.67107939e-06  7.12908342e-12 
 2.44999700e-02  9.67108626e-06 -5.27779885e-13 
 2.74999500e-02  9.67107896e-06  7.12908342e-12 
 3.00000010e-02  9.67108625e-06 -5.27779884e-13 
 3.02999990e-02  7.21575471e-08  9.93395382e-06 
 3.08999950e-02  7.21655718e-08  9.93394624e-06 
 3.20999870e-02  7.21686382e-08  9.93394293e-06 
 3.44999710e-02  7.21658106e-08  9.93394600e-06 
 3.74999510e-02  7.21686380e-08  9.93394292e-06 
 4.00000000e-02  7.21658101e-08  9.93394600e-06 
 4.02999980e-02  9.67138631e-06  7.12908330e-12 
 4.08999940e-02  9.67118596e-06 -5.27779669e-13 
 4.20999860e-02  9.67107939e-06  7.12908322e-12 
 4.44999700e-02  9.67108627e-06 -5.27779678e-13 
 4.74999500e-02  9.67107895e-06  7.12908321e-12 
 5.00000010e-02  9.67108625e-06 -5.27779678e-13 
 5.02999990e-02  7.21575469e-08  9.93395382e-06 
 5.08999950e-02  7.21655717e-08  9.93394623e-06 
 5.20999870e-02  7.21686383e-08  9.93394293e-06 
 5.44999710e-02  7.21658104e-08  9.93394600e-06 
 5.74999510e-02  7.21686381e-08  9.93394292e-06 
 6.00000000e-02  7.21658104e-08  9.93394600e-06 
 6.02999980e-02  9.67138631e-06  7.12908331e-12 
 6.08999940e-02  9.67118596e-06 -5.27779669e-13 
 6.20999860e-02  9.67107939e-06  7.12908322e-12 
 6.44999700e-02  9.67108626e-06 -5.27779679e-13 
 6.74999500e-02  9.67107896e-06  7.12908321e-12 
 7.00000010e-02  9.67108625e-06 -5.27779678e-13 
 7.02999990e-02  7.21575469e-08  9.93395382e-06 
 7.08999950e-02  7.21655720e-08  9.93394624e-06 
 7.20999870e-02  7.21686379e-08  9.93394292e-06 
 7.44999710e-02  7.21658103e-08  9.93394600e-06 
 7.74999510e-02  7.21686381e-08  9.93394292e-06 
 8.00000000e-02  7.21658103e-08  9.93394600e-06 
 8.02999980e-02  9.67138631e-06  7.12908331e-12 
 8.08999940e-02  9.67118596e-06 -5.27779669e-13 
 8.20999860e-02  9.67107939e-06  7.12908322e-12 
 8.44999700e-02  9.67108626e-06 -5.27779679e-13 
 8.74999500e-02  9.67107896e-06  7.12908321e-12 
 9.00000010e-02  9.67108625e-06 -5.27779678e-13 
 9.02999990e-02  7.21575471e-08  9.93395382e-06 
 9.08999950e-02  7.21655720e-08  9.93394624e-06 
 9.20999870e-02  7.21686381e-08  9.93394292e-06 
 9.44999710e-02  7.21658105e-08  9.93394600e-06 
 9.74999510e-02  7.21686381e-08  9.93394292e-06 
 1.00000000e-01  7.21658104e-08  9.93394600e-06 
 1.00299998e-01  9.67138631e-06  7.12908331e-12 
 1.00899994e-01  9.67118596e-06 -5.27779669e-13 
 1.02099986e-01  9.67107939e-06  7.12908322e-12 
 1.04499970e-01  9.67108626e-06 -5.27779679e-13 
 1.07499950e-01  9.67107896e-06  7.12908321e-12 
 1.10000001e-01  9.67108625e-06 -5.27779678e-13 
 1.10299999e-01  7.21575467e-08  9.93395382e-06 
 1.10899995e-01  7.21655720e-08  9.93394624e-06 
 1.12099987e-01  7.21686380e-08  9.93394292e-06 
 1.14499971e-01  7.21658105e-08  9.93394600e-06 
 1.17499951e-01  7.21686381e-08  9.93394292e-06 
 1.20000000e-01  7.21658103e-08  9.93394600e-06 
 1.20299998e-01  9.67138631e-06  7.12908331e-12 
 1.20899994e-01  9.67118595e-06 -5.27779669e-13 
 1.22099986e-01  9.67107939e-06  7.12908322e-12 
 1.24499970e-01  9.67108627e-06 -5.27779679e-13 
 1.27499950e-01  9.67107896e-06  7.12908321e-12 
 1.30000001e-01  9.67108625e-06 -5.27779678e-13 
 1.30299999e-01  7.21575467e-08  9.93395382e-06 
 1.30899995e-01  7.21655719e-08  9.93394624e-06 
 1.32099987e-01  7.21686379e-08  9.93394292e-06 
 1.34499971e-01  7.21658103e-08  9.93394600e-06 
 1.37499951e-01  7.21686382e-08  9.93394292e-06 
 1.40000000e-01  7.21658710e-08  9.93394592e-06 
 1.40299998e-01  9.67138631e-06  7.12908327e-12 
 1.40899994e-01  9.67118596e-06 -5.27779629e-13 
 1.42099986e-01  9.67107939e-06  7.12908318e-12 
 1.44499970e-01  9.67108627e-06 -5.27779639e-13 
 1.47499950e-01  9.67107896e-06  7.12908317e-12 
 1.50000000e-01  9.67108625e-06 -5.27779637e-13 
